<Qucs Dataset 0.0.18>
<indep frequency 200>
  +1.00000000000e+08
  +1.02698231464e+08
  +1.05469267457e+08
  +1.08315072416e+08
  +1.11237663780e+08
  +1.14239113423e+08
  +1.17321549125e+08
  +1.20487156077e+08
  +1.23738178432e+08
  +1.27076920895e+08
  +1.30505750358e+08
  +1.34027097575e+08
  +1.37643458892e+08
  +1.41357398007e+08
  +1.45171547796e+08
  +1.49088612175e+08
  +1.53111368017e+08
  +1.57242667123e+08
  +1.61485438242e+08
  +1.65842689145e+08
  +1.70317508764e+08
  +1.74913069373e+08
  +1.79632628845e+08
  +1.84479532955e+08
  +1.89457217757e+08
  +1.94569212017e+08
  +1.99819139714e+08
  +2.05210722612e+08
  +2.10747782896e+08
  +2.16434245882e+08
  +2.22274142803e+08
  +2.28271613659e+08
  +2.34430910161e+08
  +2.40756398739e+08
  +2.47252563641e+08
  +2.53924010107e+08
  +2.60775467641e+08
  +2.67811793359e+08
  +2.75037975430e+08
  +2.82459136620e+08
  +2.90080537916e+08
  +2.97907582259e+08
  +3.05945818376e+08
  +3.14200944709e+08
  +3.22678813458e+08
  +3.31385434729e+08
  +3.40326980794e+08
  +3.49509790469e+08
  +3.58940373603e+08
  +3.68625415699e+08
  +3.78571782648e+08
  +3.88786525600e+08
  +3.99276885959e+08
  +4.10050300523e+08
  +4.21114406748e+08
  +4.32477048168e+08
  +4.44146279954e+08
  +4.56130374624e+08
  +4.68437827907e+08
  +4.81077364767e+08
  +4.94057945587e+08
  +5.07388772523e+08
  +5.21079296025e+08
  +5.35139221541e+08
  +5.49578516390e+08
  +5.64407416836e+08
  +5.79636435340e+08
  +5.95276368012e+08
  +6.11338302269e+08
  +6.27833624689e+08
  +6.44774029089e+08
  +6.62171524811e+08
  +6.80038445236e+08
  +6.98387456530e+08
  +7.17231566619e+08
  +7.36584134416e+08
  +7.56458879286e+08
  +7.76869890776e+08
  +7.97831638599e+08
  +8.19358982898e+08
  +8.41467184774e+08
  +8.64171917109e+08
  +8.87489275675e+08
  +9.11435790547e+08
  +9.36028437818e+08
  +9.61284651634e+08
  +9.87222336559e+08
  +1.01385988026e+09
  +1.04121616654e+09
  +1.06931058875e+09
  +1.09816306350e+09
  +1.12779404480e+09
  +1.15822453856e+09
  +1.18947611748e+09
  +1.22157093633e+09
  +1.25453174769e+09
  +1.28838191802e+09
  +1.32314544431e+09
  +1.35884697099e+09
  +1.39551180751e+09
  +1.43316594617e+09
  +1.47183608066e+09
  +1.51154962488e+09
  +1.55233473244e+09
  +1.59422031661e+09
  +1.63723607079e+09
  +1.68141248959e+09
  +1.72678089041e+09
  +1.77337343571e+09
  +1.82122315571e+09
  +1.87036397192e+09
  +1.92083072110e+09
  +1.97265917997e+09
  +2.02588609064e+09
  +2.08054918655e+09
  +2.13668721931e+09
  +2.19433998614e+09
  +2.25354835807e+09
  +2.31435430891e+09
  +2.37680094505e+09
  +2.44093253598e+09
  +2.50679454567e+09
  +2.57443366482e+09
  +2.64389784397e+09
  +2.71523632746e+09
  +2.78849968836e+09
  +2.86373986431e+09
  +2.94101019437e+09
  +3.02036545678e+09
  +3.10186190784e+09
  +3.18555732180e+09
  +3.27151103174e+09
  +3.35978397173e+09
  +3.45043871997e+09
  +3.54353954314e+09
  +3.63915244201e+09
  +3.73734519821e+09
  +3.83818742225e+09
  +3.94175060291e+09
  +4.04810815789e+09
  +4.15733548588e+09
  +4.26951002001e+09
  +4.38471128271e+09
  +4.50302094212e+09
  +4.62452286999e+09
  +4.74930320111e+09
  +4.87745039438e+09
  +5.00905529554e+09
  +5.14421120155e+09
  +5.28301392674e+09
  +5.42556187073e+09
  +5.57195608820e+09
  +5.72230036051e+09
  +5.87670126927e+09
  +6.03526827194e+09
  +6.19811377936e+09
  +6.36535323550e+09
  +6.53710519927e+09
  +6.71349142856e+09
  +6.89463696659e+09
  +7.08067023051e+09
  +7.27172310250e+09
  +7.46793102320e+09
  +7.66943308774e+09
  +7.87637214439e+09
  +8.08889489577e+09
  +8.30715200290e+09
  +8.53129819197e+09
  +8.76149236403e+09
  +8.99789770767e+09
  +9.24068181468e+09
  +9.49001679885e+09
  +9.74607941801e+09
  +1.00090511993e+10
  +1.02791185680e+10
  +1.05564729794e+10
  +1.08413110547e+10
  +1.11338347207e+10
  +1.14342513522e+10
  +1.17427739198e+10
  +1.20596211404e+10
  +1.23850176324e+10
  +1.27191940749e+10
  +1.30623873714e+10
  +1.34148408173e+10
  +1.37768042730e+10
  +1.41485343406e+10
  +1.45302945458e+10
  +1.49223555250e+10
  +1.53249952168e+10
  +1.57384990596e+10
  +1.61631601931e+10
  +1.65992796669e+10
  +1.70471666536e+10
  +1.75071386679e+10
  +1.79795217918e+10
  +1.84646509058e+10
  +1.89628699261e+10
  +1.94745320489e+10
  +2.00000000000e+10
</indep>
<dep dBS11 frequency>
  -5.57096799069e-11
  -7.28718158294e-11
  -9.53449852741e-11
  -1.24761794642e-10
  -1.63278962312e-10
  -2.13720039108e-10
  -2.79785149517e-10
  -3.66338361284e-10
  -4.79751950309e-10
  -6.28396279005e-10
  -8.23270466461e-10
  -1.07879410129e-09
  -1.41394273725e-09
  -1.85365291830e-09
  -2.43070792106e-09
  -3.18823391641e-09
  -4.18300086245e-09
  -5.48974413810e-09
  -7.20691820300e-09
  -9.46427765799e-09
  -1.24329462707e-08
  -1.63386841930e-08
  -2.14795549235e-08
  -2.82493063921e-08
  -3.71684035024e-08
  -4.89253577643e-08
  -6.44315449773e-08
  -8.48943273016e-08
  -1.11914469638e-07
  -1.47616108345e-07
  -1.94820319639e-07
  -2.57277367364e-07
  -3.39977611526e-07
  -4.49568414880e-07
  -5.94913966493e-07
  -7.87848004538e-07
  -1.04418758289e-06
  -1.38510040601e-06
  -1.83895215575e-06
  -2.44380675067e-06
  -3.25081609535e-06
  -4.32882456279e-06
  -5.77063564851e-06
  -7.70155793992e-06
  -1.02910838241e-05
  -1.37688838520e-05
  -1.84467604252e-05
  -2.47488505279e-05
  -3.32532748899e-05
  -4.47497103897e-05
  -6.03191688317e-05
  -8.14448223136e-05
  -1.10166341824e-04
  -1.49295369289e-04
  -2.02717075944e-04
  -2.75813205301e-04
  -3.76056883697e-04
  -5.13850682984e-04
  -7.03709576712e-04
  -9.65933200190e-04
  -1.32897219414e-03
  -1.83277800040e-03
  -2.53354271326e-03
  -3.51039549692e-03
  -4.87483510502e-03
  -6.78395195175e-03
  -9.45882625123e-03
  -1.32098565415e-02
  -1.84711052085e-02
  -2.58458922730e-02
  -3.61655440126e-02
  -5.05619543428e-02
  -7.05518247353e-02
  -9.81254864573e-02
  -1.35825899500e-01
  -1.86794894595e-01
  -2.54757469544e-01
  -3.43917162302e-01
  -4.58753035857e-01
  -6.03743483376e-01
  -7.83083939727e-01
  -1.00049224530e+00
  -1.25918437495e+00
  -1.56205207683e+00
  -1.91200861577e+00
  -2.31242710198e+00
  -2.76759945960e+00
  -3.28318619429e+00
  -3.86668523091e+00
  -4.52800546257e+00
  -5.28028923667e+00
  -6.14121198478e+00
  -7.13515070959e+00
  -8.29697604088e+00
  -9.67909421697e+00
  -1.13656766978e+01
  -1.35050929047e+01
  -1.63983684108e+01
  -2.08248719180e+01
  -3.04177667845e+01
  -3.02357546025e+01
  -2.07664210975e+01
  -1.63658767148e+01
  -1.34845047927e+01
  -1.13521846904e+01
  -9.67039342215e+00
  -8.29171590050e+00
  -7.13242640776e+00
  -6.14036112076e+00
  -5.28079992288e+00
  -4.52947085322e+00
  -3.86877889655e+00
  -3.28564716098e+00
  -2.77022179388e+00
  -2.31505176884e+00
  -1.91451673584e+00
  -1.56435932374e+00
  -1.26123637317e+00
  -1.00226066145e+00
  -7.84562743548e-01
  -6.04944832554e-01
  -4.59702526453e-01
  -3.44648665202e-01
  -2.55308159202e-01
  -1.87201144464e-01
  -1.36120471336e-01
  -9.83360669979e-02
  -7.07006658002e-02
  -5.06662430424e-02
  -3.62381468242e-02
  -2.58962094015e-02
  -1.85058770396e-02
  -1.32338483610e-02
  -9.47537194808e-03
  -6.79536653615e-03
  -4.88271781761e-03
  -3.51584747267e-03
  -2.53732072963e-03
  -1.83540180686e-03
  -1.33079882150e-03
  -9.67208121121e-04
  -7.04601803072e-04
  -5.14476794429e-04
  -3.76497464921e-04
  -2.76124090827e-04
  -2.02937048994e-04
  -1.49451439824e-04
  -1.10277371196e-04
  -8.15240177192e-05
  -6.03758036773e-05
  -4.47903139382e-05
  -3.32824568246e-05
  -2.47698740805e-05
  -1.84619418315e-05
  -1.37798714566e-05
  -1.02990536912e-05
  -7.70735124871e-06
  -5.77485554244e-06
  -4.33190453955e-06
  -3.25306844970e-06
  -2.44545698639e-06
  -1.84016342388e-06
  -1.38599103696e-06
  -1.04484357596e-06
  -7.88331959115e-07
  -5.95271566650e-07
  -4.49833052401e-07
  -3.40173749480e-07
  -2.57422941283e-07
  -1.94928507060e-07
  -1.47696622459e-07
  -1.11974466237e-07
  -8.49390841510e-08
  -6.44649729073e-08
  -4.89503569898e-08
  -3.71871244738e-08
  -2.82633286779e-08
  -2.14900723611e-08
  -1.63465820350e-08
  -1.24388826706e-08
  -9.46874490499e-09
  -7.21027647340e-09
  -5.49227405122e-09
  -4.18491312382e-09
  -3.18967896112e-09
  -2.43179423595e-09
  -1.85447645396e-09
  -1.41456762144e-09
  -1.07926372877e-09
  -8.23624374642e-10
  -6.28670148006e-10
  -4.79961209370e-10
  -3.66491207188e-10
  -2.79901833141e-10
  -2.13807792907e-10
  -1.63345500908e-10
  -1.24815314816e-10
  -9.53830762090e-11
  -7.29041207995e-11
  -5.57313772749e-11
</dep>
<dep dBS21 frequency>
  -1.08918780774e+02
  -1.07752112853e+02
  -1.06584877088e+02
  -1.05417042361e+02
  -1.04248575845e+02
  -1.03079442913e+02
  -1.01909607035e+02
  -1.00739029676e+02
  -9.95676701882e+01
  -9.83954856886e+01
  -9.72224309420e+01
  -9.60484582293e+01
  -9.48735172114e+01
  -9.36975547860e+01
  -9.25205149356e+01
  -9.13423385686e+01
  -9.01629633504e+01
  -8.89823235267e+01
  -8.78003497372e+01
  -8.66169688185e+01
  -8.54321035983e+01
  -8.42456726779e+01
  -8.30575902035e+01
  -8.18677656270e+01
  -8.06761034536e+01
  -7.94825029783e+01
  -7.82868580091e+01
  -7.70890565779e+01
  -7.58889806382e+01
  -7.46865057500e+01
  -7.34815007521e+01
  -7.22738274212e+01
  -7.10633401201e+01
  -6.98498854340e+01
  -6.86333017979e+01
  -6.74134191152e+01
  -6.61900583716e+01
  -6.49630312468e+01
  -6.37321397273e+01
  -6.24971757280e+01
  -6.12579207280e+01
  -6.00141454300e+01
  -5.87656094556e+01
  -5.75120610907e+01
  -5.62532371000e+01
  -5.49888626345e+01
  -5.37186512622e+01
  -5.24423051598e+01
  -5.11595155148e+01
  -4.98699631982e+01
  -4.85733197870e+01
  -4.72692490339e+01
  -4.59574089109e+01
  -4.46374543868e+01
  -4.33090411394e+01
  -4.19718304653e+01
  -4.06254957120e+01
  -3.92697306547e+01
  -3.79042603496e+01
  -3.65288551356e+01
  -3.51433486385e+01
  -3.37476608378e+01
  -3.23418275177e+01
  -3.09260377046e+01
  -2.95006810031e+01
  -2.80664070143e+01
  -2.66241991877e+01
  -2.51754653549e+01
  -2.37221465724e+01
  -2.22668443519e+01
  -2.08129633138e+01
  -1.93648610414e+01
  -1.79279887630e+01
  -1.65089952510e+01
  -1.51157531676e+01
  -1.37572557839e+01
  -1.24433299304e+01
  -1.11841284851e+01
  -9.98941118494e+00
  -8.86769374577e+00
  -7.82542020376e+00
  -6.86635265897e+00
  -5.99134079596e+00
  -5.19852957126e+00
  -4.48393154347e+00
  -3.84219408235e+00
  -3.26737050757e+00
  -2.75355135249e+00
  -2.29528945043e+00
  -1.88782185851e+00
  -1.52713300730e+00
  -1.20991639315e+00
  -9.33486063440e-01
  -6.95674721905e-01
  -4.94740069506e-01
  -3.29288876503e-01
  -1.98220398500e-01
  -1.00686693391e-01
  -3.60660995015e-02
  -3.94643486843e-03
  -4.11542419030e-03
  -3.65568495894e-02
  -1.01451705056e-01
  -1.99184243668e-01
  -3.30353425827e-01
  -4.95791089976e-01
  -6.96589205585e-01
  -9.34139581594e-01
  -1.21018978579e+00
  -1.52691782715e+00
  -1.88702419099e+00
  -2.29383201208e+00
  -2.75137409225e+00
  -3.26443023884e+00
  -3.83846387362e+00
  -4.47940059993e+00
  -5.19320407405e+00
  -5.98524563426e+00
  -6.85953333873e+00
  -7.81794373754e+00
  -8.85964734178e+00
  -9.98089817209e+00
  -1.11752618833e+01
  -1.24342249021e+01
  -1.37480224771e+01
  -1.51064911407e+01
  -1.64997900274e+01
  -1.79189104527e+01
  -1.93559645851e+01
  -2.08042897847e+01
  -2.22584228018e+01
  -2.37139960437e+01
  -2.51675968169e+01
  -2.66166172691e+01
  -2.80591114816e+01
  -2.94936679809e+01
  -3.09193006592e+01
  -3.23353580354e+01
  -3.37414492325e+01
  -3.51373844194e+01
  -3.65231273641e+01
  -3.78987579071e+01
  -3.92644424428e+01
  -4.06204107975e+01
  -4.19669381852e+01
  -4.33043311731e+01
  -4.46329168044e+01
  -4.59530342034e+01
  -4.72650281283e+01
  -4.85692440527e+01
  -4.98660244440e+01
  -5.11557059817e+01
  -5.24386175090e+01
  -5.37150785608e+01
  -5.49853983393e+01
  -5.62498750399e+01
  -5.75087954492e+01
  -5.87624347526e+01
  -6.00110565039e+01
  -6.12549127185e+01
  -6.24942440591e+01
  -6.37292800907e+01
  -6.49602395867e+01
  -6.61873308697e+01
  -6.74107521762e+01
  -6.86306920367e+01
  -6.98473296627e+01
  -7.10608353361e+01
  -7.22713707962e+01
  -7.34790896212e+01
  -7.46841376022e+01
  -7.58866531067e+01
  -7.70867674318e+01
  -7.82846051448e+01
  -7.94802844121e+01
  -8.06739173144e+01
  -8.18656101496e+01
  -8.30554637223e+01
  -8.42435736210e+01
  -8.54300304819e+01
  -8.66149202417e+01
  -8.77983243772e+01
  -8.89803201344e+01
  -9.01609807455e+01
  -9.13403756364e+01
  -9.25185706228e+01
  -9.36956280969e+01
  -9.48716072052e+01
  -9.60465640165e+01
  -9.72205516817e+01
  -9.83936205856e+01
  -9.95658184906e+01
  -1.00737190673e+02
  -1.01907780053e+02
  -1.03077627316e+02
  -1.04246771032e+02
  -1.05415247760e+02
  -1.06583092162e+02
  -1.07750337091e+02
  -1.08917013693e+02
</dep>
<dep S[1,1] frequency>
  -8.38016655193e-01+j5.45644651404e-01
  -8.29311294489e-01+j5.58786879602e-01
  -8.20147387449e-01+j5.72152307379e-01
  -8.10501877146e-01+j5.85736038770e-01
  -8.00350681063e-01+j5.99532140326e-01
  -7.89668662875e-01+j6.13533538467e-01
  -7.78429606071e-01+j6.27731908005e-01
  -7.66606189929e-01+j6.42117551137e-01
  -7.54169968459e-01+j6.56679266130e-01
  -7.41091353004e-01+j6.71404204901e-01
  -7.27339599316e-01+j6.86277718622e-01
  -7.12882800033e-01+j7.01283190422e-01
  -6.97687883641e-01+j7.16401854195e-01
  -6.81720621154e-01+j7.31612598488e-01
  -6.64945641927e-01+j7.46891754355e-01
  -6.47326460255e-01+j7.62212866015e-01
  -6.28825514616e-01+j7.77546443117e-01
  -6.09404221718e-01+j7.92859693318e-01
  -5.89023047816e-01+j8.08116233893e-01
  -5.67641600133e-01+j8.23275781023e-01
  -5.45218741607e-01+j8.38293815400e-01
  -5.21712732701e-01+j8.53121222791e-01
  -4.97081404486e-01+j8.67703908236e-01
  -4.71282367889e-01+j8.81982382598e-01
  -4.44273264629e-01+j8.95891320294e-01
  -4.16012066222e-01+j9.09359087211e-01
  -3.86457428285e-01+j9.22307238011e-01
  -3.55569108450e-01+j9.34649982383e-01
  -3.23308457343e-01+j9.46293620205e-01
  -2.89638993423e-01+j9.57135946195e-01
  -2.54527074006e-01+j9.67065625353e-01
  -2.17942676471e-01+j9.75961541523e-01
  -1.79860305622e-01+j9.83692122658e-01
  -1.40260045322e-01+j9.90114647992e-01
  -9.91287749422e-02+j9.95074544441e-01
  -5.64615739087e-02+j9.98404682112e-01
  -1.22633406085e-02+j9.99924682186e-01
  +3.34493447894e-02+j9.99440254544e-01
  +8.06460804539e-02+j9.96742587769e-01
  +1.29280188990e-01+j9.91607820677e-01
  +1.79285908544e-01+j9.83796632679e-01
  +2.30575183852e-01+j9.73054000477e-01
  +2.83034008212e-01+j9.59109181198e-01
  +3.36518263745e-01+j9.41675997792e-01
  +3.90849004551e-01+j9.20453521931e-01
  +4.45807125951e-01+j8.95127273662e-01
  +5.01127363940e-01+j8.65371086642e-01
  +5.56491573367e-01+j8.30849824068e-01
  +6.11521243127e-01+j7.91223174827e-01
  +6.65769224140e-01+j7.46150813335e-01
  +7.18710674641e-01+j6.95299271718e-01
  +7.69733272128e-01+j6.38350950960e-01
  +8.18126808687e-01+j5.75015789777e-01
  +8.63072385564e-01+j5.05046217032e-01
  +9.03631565788e-01+j4.28256134887e-01
  +9.38736046990e-01+j3.44544812413e-01
  +9.67178701951e-01+j2.53926705849e-01
  +9.87607230212e-01+j1.56568347185e-01
  +9.98522206074e-01+j5.28335308896e-02
  +9.98282040296e-01-j5.66619662229e-02
  +9.85118344414e-01-j1.70985049519e-01
  +9.57166448182e-01-j2.88808702741e-01
  +9.12517408900e-01-j4.08324354910e-01
  +8.49299761235e-01-j5.27145087919e-01
  +7.65801386337e-01-j6.42204324305e-01
  +6.60643935545e-01-j7.49659087285e-01
  +5.33023579503e-01-j8.44813741915e-01
  +3.83031220927e-01-j9.22090029849e-01
  +2.12060527507e-01-j9.75082681247e-01
  +2.32997419077e-02-j9.96756519383e-01
  -1.77721679960e-01-j9.79858233201e-01
  -3.82603594703e-01-j9.17627200258e-01
  -5.79699808318e-01-j8.04881491392e-01
  -7.54116469895e-01-j6.39505636874e-01
  -8.88381718891e-01-j4.24248580993e-01
  -9.64104074226e-01-j1.68535094225e-01
  -9.64814218076e-01+j1.10276006750e-01
  -8.79834447133e-01+j3.86983016266e-01
  -7.08443161750e-01+j6.30764752201e-01
  -4.62995191097e-01+j8.09844814093e-01
  -1.69431159918e-01+j8.97943732308e-01
  +1.35840646661e-01+j8.80786879139e-01
  +4.12393031556e-01+j7.60422258295e-01
  +6.23814055572e-01+j5.55660494887e-01
  +7.44870815062e-01+j2.98393824372e-01
  +7.65786457222e-01+j2.70595893033e-02
  +6.92836094787e-01-j2.20716047607e-01
  +5.45709005766e-01-j4.14428738171e-01
  +3.52804256454e-01-j5.34833122539e-01
  +1.45756016954e-01-j5.75576164639e-01
  -4.57468421629e-02-j5.42559324407e-01
  -1.98123022425e-01-j4.51552657939e-01
  -2.96631974564e-01-j3.24687766281e-01
  -3.36520059088e-01-j1.86462097202e-01
  -3.22626862571e-01-j5.98404751658e-02
  -2.67667722658e-01+j3.70458264077e-02
  -1.89540075127e-01+j9.32232156656e-02
  -1.08087107922e-01+j1.05992743828e-01
  -4.17855464677e-02+j8.07719449514e-02
  -4.80451687752e-03+j2.97523794749e-02
  -4.81489191198e-03-j3.03970296762e-02
  -4.18231069128e-02-j8.14433867461e-02
  -1.08172194697e-01-j1.06715319122e-01
  -1.89708810171e-01-j9.40137415354e-02
  -2.67971660918e-01-j3.79049767509e-02
  -3.23127123743e-01+j5.89386165301e-02
  -3.37274292586e-01+j1.85578277967e-01
  -2.97675487434e-01+j3.23918728537e-01
  -1.99448520192e-01+j4.51021579850e-01
  -4.72891774158e-02+j5.42394937967e-01
  +1.44123825387e-01+j5.75883781395e-01
  +3.51259794033e-01+j5.35664086125e-01
  +5.44453925101e-01+j4.15756446235e-01
  +6.92058433211e-01+j2.22426144654e-01
  +7.65619590795e-01-j2.51598272917e-02
  +7.45359040204e-01-j2.96546063977e-01
  +6.24894951610e-01-j5.54110268321e-01
  +4.13904095840e-01-j7.59368117126e-01
  +1.37551608273e-01-j8.80337674142e-01
  -1.67767615487e-01-j8.98097774798e-01
  -4.61589405840e-01-j8.10498429656e-01
  -7.07428513875e-01-j6.31746858493e-01
  -8.79252809034e-01-j3.88102318013e-01
  -9.64627258142e-01-j1.11364072813e-01
  -9.64221157333e-01+j1.67596847959e-01
  -8.88691760446e-01+j4.23521138661e-01
  -7.54513896270e-01+j6.38999598237e-01
  -5.80100283097e-01+j8.04571951668e-01
  -3.82949901433e-01+j9.17469796342e-01
  -1.77982596485e-01+j9.79802413452e-01
  +2.31343332631e-02+j9.96754594870e-01
  +2.11985743010e-01+j9.75094854287e-01
  +3.83032923396e-01+j9.22086336207e-01
  +5.33083035716e-01+j8.44773975910e-01
  +6.60741198392e-01+j7.49571611835e-01
  +7.65917513307e-01+j6.42064410521e-01
  +8.49418100986e-01+j5.26953189116e-01
  +9.12624206238e-01+j4.08084536749e-01
  +9.57250987758e-01+j2.88527327720e-01
  +9.85172806883e-01+j1.70669738883e-01
  +9.98301198013e-01+j5.63208215793e-02
  +9.98503045760e-01-j5.31924826237e-02
  +9.87548559241e-01-j1.56937527374e-01
  +9.67080772472e-01-j2.54299216529e-01
  +9.38600216527e-01-j3.44914562805e-01
  +9.03460002633e-01-j4.28617891310e-01
  +8.62867820765e-01-j5.05395599521e-01
  +8.17892332585e-01-j5.75349233351e-01
  +7.69472171322e-01-j6.38665645027e-01
  +7.18426304344e-01-j6.95593087430e-01
  +6.65464910705e-01-j7.46422225903e-01
  +6.11200211746e-01-j7.91471185592e-01
  +5.56156896377e-01-j8.31073885496e-01
  +5.00781925753e-01-j8.65571032226e-01
  +4.45453601141e-01-j8.95303253821e-01
  +3.90489846225e-01-j9.20605946403e-01
  +3.36155699784e-01-j9.41805484599e-01
  +2.82670043416e-01-j9.59216511975e-01
  +2.30211606412e-01-j9.73140081805e-01
  +1.78924299551e-01-j9.83862462941e-01
  +1.28921934005e-01-j9.91654461920e-01
  +8.02923823325e-02-j9.96771142051e-01
  +3.31012371742e-02-j9.99451844243e-01
  -1.26049795920e-02-j9.99920433787e-01
  -5.67960080895e-02-j9.98385713011e-01
  -9.94553969228e-02-j9.95041952360e-01
  -1.40578363852e-01-j9.90069502630e-01
  -1.80169933639e-01-j9.83635459245e-01
  -2.18243319885e-01-j9.75894355989e-01
  -2.54818521266e-01-j9.66988870844e-01
  -2.89921105863e-01-j9.57050530728e-01
  -3.23581160320e-01-j9.46200405254e-01
  -3.55832383240e-01-j9.34549782237e-01
  -3.86711304707e-01-j9.22200819761e-01
  -4.16256615959e-01-j9.09247171235e-01
  -4.44508595195e-01-j8.95774581150e-01
  -4.71508617209e-01-j8.81861450223e-01
  -4.97298736039e-01-j8.67579369387e-01
  -5.21921331177e-01-j8.52993622660e-01
  -5.45418809052e-01-j8.38163659358e-01
  -5.67833352521e-01-j8.23143536441e-01
