<Qucs Dataset 0.0.18>
<indep frequency 200>
  +1.00000000000e+08
  +1.02341140211e+08
  +1.04737089796e+08
  +1.07189131921e+08
  +1.09698579789e+08
  +1.12266777351e+08
  +1.14895100019e+08
  +1.17584955405e+08
  +1.20337784078e+08
  +1.23155060329e+08
  +1.26038292968e+08
  +1.28989026125e+08
  +1.32008840083e+08
  +1.35099352120e+08
  +1.38262217376e+08
  +1.41499129743e+08
  +1.44811822767e+08
  +1.48202070580e+08
  +1.51671688847e+08
  +1.55222535743e+08
  +1.58856512943e+08
  +1.62575566644e+08
  +1.66381688608e+08
  +1.70276917223e+08
  +1.74263338601e+08
  +1.78343087693e+08
  +1.82518349432e+08
  +1.86791359902e+08
  +1.91164407539e+08
  +1.95639834352e+08
  +2.00220037182e+08
  +2.04907468982e+08
  +2.09704640132e+08
  +2.14614119786e+08
  +2.19638537242e+08
  +2.24780583355e+08
  +2.30043011977e+08
  +2.35428641432e+08
  +2.40940356024e+08
  +2.46581107582e+08
  +2.52353917043e+08
  +2.58261876068e+08
  +2.64308148697e+08
  +2.70495973046e+08
  +2.76828663039e+08
  +2.83309610184e+08
  +2.89942285388e+08
  +2.96730240819e+08
  +3.03677111804e+08
  +3.10786618778e+08
  +3.18062569279e+08
  +3.25508859984e+08
  +3.33129478793e+08
  +3.40928506975e+08
  +3.48910121341e+08
  +3.57078596490e+08
  +3.65438307096e+08
  +3.73993730248e+08
  +3.82749447852e+08
  +3.91710149081e+08
  +4.00880632890e+08
  +4.10265810583e+08
  +4.19870708444e+08
  +4.29700470432e+08
  +4.39760360930e+08
  +4.50055767570e+08
  +4.60592204115e+08
  +4.71375313412e+08
  +4.82410870417e+08
  +4.93704785284e+08
  +5.05263106534e+08
  +5.17092024290e+08
  +5.29197873596e+08
  +5.41587137808e+08
  +5.54266452066e+08
  +5.67242606849e+08
  +5.80522551609e+08
  +5.94113398497e+08
  +6.08022426165e+08
  +6.22257083673e+08
  +6.36824994472e+08
  +6.51733960488e+08
  +6.66991966303e+08
  +6.82607183427e+08
  +6.98587974679e+08
  +7.14942898660e+08
  +7.31680714343e+08
  +7.48810385759e+08
  +7.66341086801e+08
  +7.84282206134e+08
  +8.02643352226e+08
  +8.21434358492e+08
  +8.40665288562e+08
  +8.60346441668e+08
  +8.80488358164e+08
  +9.01101825167e+08
  +9.22197882333e+08
  +9.43787827778e+08
  +9.65883224116e+08
  +9.88495904663e+08
  +1.01163797977e+09
  +1.03532184330e+09
  +1.05956017928e+09
  +1.08436596869e+09
  +1.10975249641e+09
  +1.13573335834e+09
  +1.16232246868e+09
  +1.18953406737e+09
  +1.21738272774e+09
  +1.24588336430e+09
  +1.27505124071e+09
  +1.30490197801e+09
  +1.33545156293e+09
  +1.36671635646e+09
  +1.39871310265e+09
  +1.43145893752e+09
  +1.46497139831e+09
  +1.49926843279e+09
  +1.53436840893e+09
  +1.57029012473e+09
  +1.60705281826e+09
  +1.64467617799e+09
  +1.68318035333e+09
  +1.72258596540e+09
  +1.76291411810e+09
  +1.80418640939e+09
  +1.84642494290e+09
  +1.88965233969e+09
  +1.93389175046e+09
  +1.97916686785e+09
  +2.02550193923e+09
  +2.07292177960e+09
  +2.12145178491e+09
  +2.17111794569e+09
  +2.22194686094e+09
  +2.27396575236e+09
  +2.32720247896e+09
  +2.38168555198e+09
  +2.43744415012e+09
  +2.49450813523e+09
  +2.55290806824e+09
  +2.61267522556e+09
  +2.67384161584e+09
  +2.73643999707e+09
  +2.80050389418e+09
  +2.86606761695e+09
  +2.93316627839e+09
  +3.00183581358e+09
  +3.07211299886e+09
  +3.14403547159e+09
  +3.21764175025e+09
  +3.29297125510e+09
  +3.37006432927e+09
  +3.44896226041e+09
  +3.52970730273e+09
  +3.61234269971e+09
  +3.69691270720e+09
  +3.78346261713e+09
  +3.87203878181e+09
  +3.96268863870e+09
  +4.05546073584e+09
  +4.15040475785e+09
  +4.24757155254e+09
  +4.34701315813e+09
  +4.44878283113e+09
  +4.55293507487e+09
  +4.65952566866e+09
  +4.76861169771e+09
  +4.88025158365e+09
  +4.99450511586e+09
  +5.11143348344e+09
  +5.23109930806e+09
  +5.35356667741e+09
  +5.47890117959e+09
  +5.60716993821e+09
  +5.73844164830e+09
  +5.87278661319e+09
  +6.01027678207e+09
  +6.15098578858e+09
  +6.29498899022e+09
  +6.44236350872e+09
  +6.59318827133e+09
  +6.74754405311e+09
  +6.90551352016e+09
  +7.06718127393e+09
  +7.23263389648e+09
  +7.40195999692e+09
  +7.57525025877e+09
  +7.75259748863e+09
  +7.93409666580e+09
  +8.11984499318e+09
  +8.30994194935e+09
  +8.50448934180e+09
  +8.70359136149e+09
  +8.90735463861e+09
  +9.11588829975e+09
  +9.32930402628e+09
  +9.54771611421e+09
  +9.77124153535e+09
  +1.00000000000e+10
</indep>
<dep dBS11 frequency>
  -4.34597611981e-06
  -4.99331442792e-06
  -5.73707455111e-06
  -6.59161861509e-06
  -7.57344801273e-06
  -8.70152203809e-06
  -9.99762395627e-06
  -1.14867816837e-05
  -1.31977510460e-05
  -1.51635710635e-05
  -1.74222019027e-05
  -2.00172578922e-05
  -2.29988496936e-05
  -2.64245519018e-05
  -3.03605147753e-05
  -3.48827415337e-05
  -4.00785559113e-05
  -4.60482882440e-05
  -5.29072127238e-05
  -6.07877731226e-05
  -6.98421399959e-05
  -8.02451487171e-05
  -9.21976750274e-05
  -1.05930513284e-04
  -1.21708832130e-04
  -1.39837293664e-04
  -1.60665934830e-04
  -1.84596924351e-04
  -2.12092325687e-04
  -2.43683015493e-04
  -2.79978929589e-04
  -3.21680833809e-04
  -3.69593846489e-04
  -4.24642972920e-04
  -4.87890950829e-04
  -5.60558750016e-04
  -6.44049120493e-04
  -7.39973641318e-04
  -8.50183789539e-04
  -9.76806625169e-04
  -1.12228577592e-03
  -1.28942850623e-03
  -1.48145977007e-03
  -1.70208427935e-03
  -1.95555777010e-03
  -2.24676882146e-03
  -2.58133277932e-03
  -2.96569956110e-03
  -3.40727737471e-03
  -3.91457467585e-03
  -4.49736301996e-03
  -5.16686384118e-03
  -5.93596261680e-03
  -6.81945435769e-03
  -7.83432490784e-03
  -9.00007314595e-03
  -1.03390798646e-02
  -1.18770298622e-02
  -1.36433946257e-02
  -1.56719839076e-02
  -1.80015755117e-02
  -2.06766336949e-02
  -2.37481277530e-02
  -2.72744635794e-02
  -3.13225422299e-02
  -3.59689607622e-02
  -4.13013717815e-02
  -4.74200191338e-02
  -5.44394679313e-02
  -6.24905474169e-02
  -7.17225248813e-02
  -8.23055276679e-02
  -9.44332279146e-02
  -1.08325800669e-01
  -1.24233159869e-01
  -1.42438467787e-01
  -1.63261901251e-01
  -1.87064641351e-01
  -2.14253031857e-01
  -2.45282824070e-01
  -2.80663392035e-01
  -3.20961761287e-01
  -3.66806247030e-01
  -4.18889444813e-01
  -4.77970260696e-01
  -5.44874612560e-01
  -6.20494385562e-01
  -7.05784190982e-01
  -8.01755469377e-01
  -9.09467508069e-01
  -1.03001502216e+00
  -1.16451208829e+00
  -1.31407242750e+00
  -1.47978630587e+00
  -1.66269464590e+00
  -1.86376129094e+00
  -2.08384469869e+00
  -2.32367060860e+00
  -2.58380737880e+00
  -2.86464567830e+00
  -3.16638402457e+00
  -3.48902128113e+00
  -3.83235671004e+00
  -4.19599757511e+00
  -4.57937369316e+00
  -4.98175781258e+00
  -5.40229032508e+00
  -5.84000662359e+00
  -6.29386541175e+00
  -6.76277642308e+00
  -7.24562627810e+00
  -7.74130154179e+00
  -8.24870839318e+00
  -8.76678864237e+00
  -9.29453210199e+00
  -9.83098552621e+00
  -1.03752584695e+01
  -1.09265264961e+01
  -1.14840321988e+01
  -1.20470844783e+01
  -1.26150564986e+01
  -1.31873826873e+01
  -1.37635550916e+01
  -1.43431193472e+01
  -1.49256704632e+01
  -1.55108485795e+01
  -1.60983348117e+01
  -1.66878472656e+01
  -1.72791372764e+01
  -1.78719859043e+01
  -1.84662007047e+01
  -1.90616127754e+01
  -1.96580740777e+01
  -2.02554550202e+01
  -2.08536422899e+01
  -2.14525369155e+01
  -2.20520525416e+01
  -2.26521138989e+01
  -2.32526554491e+01
  -2.38536201890e+01
  -2.44549585967e+01
  -2.50566277045e+01
  -2.56585902853e+01
  -2.62608141382e+01
  -2.68632714638e+01
  -2.74659383170e+01
  -2.80687941289e+01
  -2.86718212897e+01
  -2.92750047842e+01
  -2.98783318748e+01
  -3.04817918251e+01
  -3.10853756599e+01
  -3.16890759558e+01
  -3.22928866606e+01
  -3.28968029358e+01
  -3.35008210206e+01
  -3.41049381148e+01
  -3.47091522769e+01
  -3.53134623373e+01
  -3.59178678237e+01
  -3.65223688967e+01
  -3.71269662957e+01
  -3.77316612931e+01
  -3.83364556556e+01
  -3.89413516120e+01
  -3.95463518267e+01
  -4.01514593788e+01
  -4.07566777452e+01
  -4.13620107873e+01
  -4.19674627427e+01
  -4.25730382184e+01
  -4.31787421884e+01
  -4.37845799929e+01
  -4.43905573407e+01
  -4.49966803131e+01
  -4.56029553706e+01
  -4.62093893611e+01
  -4.68159895302e+01
  -4.74227635331e+01
  -4.80297194483e+01
  -4.86368657932e+01
  -4.92442115408e+01
  -4.98517661386e+01
  -5.04595395289e+01
  -5.10675421708e+01
  -5.16757850639e+01
  -5.22842797738e+01
  -5.28930384591e+01
  -5.35020739009e+01
  -5.41113995336e+01
  -5.47210294778e+01
  -5.53309785762e+01
  -5.59412624301e+01
  -5.65518974401e+01
  -5.71629008480e+01
  -5.77742907820e+01
  -5.83860863045e+01
  -5.89983074632e+01
  -5.96109753449e+01
  -6.02241121337e+01
</dep>
<dep dBS21 frequency>
  -5.99969719267e+01
  -5.93939564646e+01
  -5.87909410498e+01
  -5.81879256945e+01
  -5.75849104128e+01
  -5.69818952210e+01
  -5.63788801383e+01
  -5.57758651870e+01
  -5.51728503927e+01
  -5.45698357856e+01
  -5.39668214004e+01
  -5.33638072772e+01
  -5.27607934628e+01
  -5.21577800110e+01
  -5.15547669841e+01
  -5.09517544540e+01
  -5.03487425039e+01
  -4.97457312296e+01
  -4.91427207418e+01
  -4.85397111680e+01
  -4.79367026553e+01
  -4.73336953732e+01
  -4.67306895170e+01
  -4.61276853116e+01
  -4.55246830162e+01
  -4.49216829288e+01
  -4.43186853928e+01
  -4.37156908033e+01
  -4.31126996151e+01
  -4.25097123512e+01
  -4.19067296136e+01
  -4.13037520944e+01
  -4.07007805899e+01
  -4.00978160159e+01
  -3.94948594253e+01
  -3.88919120288e+01
  -3.82889752186e+01
  -3.76860505950e+01
  -3.70831399978e+01
  -3.64802455418e+01
  -3.58773696576e+01
  -3.52745151392e+01
  -3.46716851974e+01
  -3.40688835220e+01
  -3.34661143533e+01
  -3.28633825638e+01
  -3.22606937518e+01
  -3.16580543493e+01
  -3.10554717461e+01
  -3.04529544309e+01
  -2.98505121551e+01
  -2.92481561185e+01
  -2.86458991842e+01
  -2.80437561239e+01
  -2.74417438986e+01
  -2.68398819817e+01
  -2.62381927267e+01
  -2.56367017904e+01
  -2.50354386146e+01
  -2.44344369781e+01
  -2.38337356262e+01
  -2.32333789891e+01
  -2.26334180006e+01
  -2.20339110292e+01
  -2.14349249370e+01
  -2.08365362800e+01
  -2.02388326680e+01
  -1.96419143000e+01
  -1.90458956940e+01
  -1.84509076301e+01
  -1.78570993240e+01
  -1.72646408491e+01
  -1.66737258207e+01
  -1.60845743549e+01
  -1.54974363034e+01
  -1.49125947634e+01
  -1.43303698438e+01
  -1.37511226543e+01
  -1.31752594640e+01
  -1.26032359459e+01
  -1.20355613922e+01
  -1.14728027425e+01
  -1.09155882222e+01
  -1.03646103327e+01
  -9.82062788137e+00
  -9.28446668286e+00
  -8.75701851412e+00
  -8.23923787313e+00
  -7.73213608176e+00
  -7.23677230303e+00
  -6.75424112183e+00
  -6.28565647845e+00
  -5.83213195107e+00
  -5.39475765618e+00
  -4.97457435958e+00
  -4.57254574049e+00
  -4.18953008471e+00
  -3.82625295162e+00
  -3.48328251076e+00
  -3.16100923360e+00
  -2.85963143070e+00
  -2.57914774889e+00
  -2.31935722321e+00
  -2.07986687973e+00
  -1.86010628623e+00
  -1.65934793026e+00
  -1.47673193030e+00
  -1.31129339314e+00
  -1.16199072264e+00
  -1.02773333835e+00
  -9.07407531935e-01
  -7.99899523902e-01
  -7.04115132463e-01
  -6.18995789784e-01
  -5.43530912625e-01
  -4.76766840484e-01
  -4.17812693529e-01
  -3.65843580962e-01
  -3.20101619053e-01
  -2.79895209249e-01
  -2.44596992794e-01
  -2.13640849465e-01
  -1.86518252683e-01
  -1.62774237167e-01
  -1.42003182563e-01
  -1.23844569259e-01
  -1.07978821977e-01
  -9.41233229747e-02
  -8.20286493255e-02
  -7.14750672938e-02
  -6.22693003065e-02
  -5.42415747780e-02
  -4.72429391945e-02
  -4.11428457558e-02
  -3.58269798800e-02
  -3.11953205152e-02
  -2.71604130330e-02
  -2.36458361992e-02
  -2.05848450434e-02
  -1.79191721987e-02
  -1.55979712951e-02
  -1.35768871550e-02
  -1.18172387727e-02
  -1.02853023081e-02
  -8.95168254160e-03
  -7.79076239828e-03
  -6.78022124230e-03
  -5.90061365009e-03
  -5.13500129723e-03
  -4.46863143455e-03
  -3.88865618795e-03
  -3.38388759786e-03
  -2.94458392316e-03
  -2.56226327636e-03
  -2.22954113770e-03
  -1.93998872142e-03
  -1.68800954311e-03
  -1.46873186802e-03
  -1.27791501145e-03
  -1.11186771808e-03
  -9.67377071372e-04
  -8.41646580700e-04
  -7.32242266441e-04
  -6.37045713243e-04
  -5.54213193708e-04
  -4.82140079786e-04
  -4.19429859294e-04
  -3.64867163126e-04
  -3.17394284708e-04
  -2.76090740458e-04
  -2.40155477857e-04
  -2.08891388661e-04
  -1.81691828920e-04
  -1.58028886008e-04
  -1.37443166495e-04
  -1.19534907823e-04
  -1.03956242373e-04
  -9.04044645977e-05
  -7.86161711999e-05
  -6.83621612848e-05
  -5.94429978971e-05
  -5.16851452956e-05
  -4.49376072613e-05
  -3.90690014928e-05
  -3.39650135730e-05
  -2.95261812388e-05
  -2.56659661553e-05
  -2.23090758902e-05
  -1.93900036431e-05
  -1.68517574872e-05
  -1.46447545014e-05
  -1.27258585020e-05
  -1.10575425993e-05
  -9.60716053462e-06
  -8.34631254765e-06
  -7.25029363522e-06
  -6.29761338966e-06
  -5.46957823259e-06
  -4.74992786626e-06
  -4.12451895844e-06
</dep>
<dep S[1,1] frequency>
  -9.79997698088e-01+j1.99006309060e-01
  -9.79050070062e-01+j2.03616822878e-01
  -9.78057537298e-01+j2.08331785201e-01
  -9.77017970468e-01+j2.13153389855e-01
  -9.75929139066e-01+j2.18083863853e-01
  -9.74788706564e-01+j2.23125466850e-01
  -9.73594225348e-01+j2.28280490481e-01
  -9.72343131386e-01+j2.33551257587e-01
  -9.71032738656e-01+j2.38940121301e-01
  -9.69660233286e-01+j2.44449463997e-01
  -9.68222667410e-01+j2.50081696075e-01
  -9.66716952723e-01+j2.55839254581e-01
  -9.65139853717e-01+j2.61724601635e-01
  -9.63487980574e-01+j2.67740222661e-01
  -9.61757781714e-01+j2.73888624390e-01
  -9.59945535963e-01+j2.80172332626e-01
  -9.58047344330e-01+j2.86593889741e-01
  -9.56059121365e-01+j2.93155851895e-01
  -9.53976586085e-01+j2.99860785931e-01
  -9.51795252430e-01+j3.06711265929e-01
  -9.49510419230e-01+j3.13709869397e-01
  -9.47117159659e-01+j3.20859173037e-01
  -9.44610310139e-01+j3.28161748084e-01
  -9.41984458663e-01+j3.35620155136e-01
  -9.39233932506e-01+j3.43236938468e-01
  -9.36352785287e-01+j3.51014619749e-01
  -9.33334783341e-01+j3.58955691124e-01
  -9.30173391365e-01+j3.67062607584e-01
  -9.26861757281e-01+j3.75337778566e-01
  -9.23392696287e-01+j3.83783558703e-01
  -9.19758674030e-01+j3.92402237625e-01
  -9.15951788860e-01+j4.01196028742e-01
  -9.11963753094e-01+j4.10167056862e-01
  -9.07785873247e-01+j4.19317344567e-01
  -9.03409029150e-01+j4.28648797173e-01
  -8.98823651900e-01+j4.38163186145e-01
  -8.94019700571e-01+j4.47862130790e-01
  -8.88986637606e-01+j4.57747078030e-01
  -8.83713402821e-01+j4.67819280046e-01
  -8.78188385947e-01+j4.78079769539e-01
  -8.72399397629e-01+j4.88529332337e-01
  -8.66333638808e-01+j4.99168477025e-01
  -8.59977668413e-01+j5.09997401255e-01
  -8.53317369296e-01+j5.21015954323e-01
  -8.46337912351e-01+j5.32223595552e-01
  -8.39023718774e-01+j5.43619347973e-01
  -8.31358420428e-01+j5.55201746711e-01
  -8.23324818322e-01+j5.66968781401e-01
  -8.14904839229e-01+j5.78917831885e-01
  -8.06079490519e-01+j5.91045596330e-01
  -7.96828813347e-01+j6.03348010786e-01
  -7.87131834395e-01+j6.15820159093e-01
  -7.76966516497e-01+j6.28456171894e-01
  -7.66309708554e-01+j6.41249113340e-01
  -7.55137095335e-01+j6.54190853926e-01
  -7.43423147956e-01+j6.67271927686e-01
  -7.31141076040e-01+j6.80481371777e-01
  -7.18262782901e-01+j6.93806546259e-01
  -7.04758825448e-01+j7.07232931654e-01
  -6.90598380970e-01+j7.20743901638e-01
  -6.75749223522e-01+j7.34320467976e-01
  -6.60177713323e-01+j7.47940994623e-01
  -6.43848803405e-01+j7.61580877713e-01
  -6.26726068743e-01+j7.75212188068e-01
  -6.08771764298e-01+j7.88803272814e-01
  -5.89946919821e-01+j8.02318312829e-01
  -5.70211480910e-01+j8.15716833043e-01
  -5.49524507792e-01+j8.28953163233e-01
  -5.27844445464e-01+j8.41975847880e-01
  -5.05129481401e-01+j8.54727005167e-01
  -4.81338009769e-01+j8.67141637278e-01
  -4.56429224106e-01+j8.79146897153e-01
  -4.30363863528e-01+j8.90661320850e-01
  -4.03105140566e-01+j9.01594040022e-01
  -3.74619881438e-01+j9.11843995937e-01
  -3.44879911550e-01+j9.21299185280e-01
  -3.13863719702e-01+j9.29835978904e-01
  -2.81558433098e-01+j9.37318567982e-01
  -2.47962130858e-01+j9.43598607566e-01
  -2.13086515037e-01+j9.48515145365e-01
  -1.76959943662e-01+j9.51894942758e-01
  -1.39630808452e-01+j9.53553314622e-01
  -1.01171208901e-01+j9.53295632453e-01
  -6.16808329317e-02+j9.50919648466e-01
  -2.12909015394e-02+j9.46218802809e-01
  +1.98320286736e-02+j9.38986666396e-01
  +6.14826830899e-02+j9.29022641901e-01
  +1.03414459624e-01+j9.16138988518e-01
  +1.45338013943e-01+j9.00169146354e-01
  +1.86921511028e-01+j8.80977210402e-01
  +2.27793029239e-01+j8.58468243328e-01
  +2.67545563340e-01+j8.32598929507e-01
  +3.05744961636e-01+j8.03387877985e-01
  +3.41940937688e-01+j7.70924707628e-01
  +3.75681019142e-01+j7.35376930516e-01
  +4.06526952257e-01+j6.96993629923e-01
  +4.34072708514e-01+j6.56105041908e-01
  +4.57962895589e-01+j6.13117413406e-01
  +4.77910126448e-01+j5.68502916798e-01
  +4.93709811434e-01+j5.22784910312e-01
  +5.05250952741e-01+j4.76519373799e-01
  +5.12521846027e-01+j4.30273830045e-01
  +5.15610094023e-01+j3.84605393527e-01
  +5.14696935859e-01+j3.40039706056e-01
  +5.10046493954e-01+j2.97052398159e-01
  +5.01991038512e-01+j2.56054380837e-01
  +4.90913692355e-01+j2.17381790432e-01
  +4.77230110455e-01+j1.81290869051e-01
  +4.61370577181e-01+j1.47957554683e-01
  +4.43763714083e-01+j1.17481149914e-01
  +4.24822646171e-01+j8.98911764018e-02
  +4.04934102598e-01+j6.51564116325e-02
  +3.84450584469e-01+j4.31951258260e-02
  +3.63685455753e-01+j2.38856551499e-02
  +3.42910619843e-01+j7.07662233355e-03
  +3.22356334159e-01-j7.40368939644e-03
  +3.02212676483e-01-j1.97391165972e-02
  +2.82632191875e-01-j3.01186973959e-02
  +2.63733299427e-01-j3.87310766673e-02
  +2.45604107243e-01-j4.57601672665e-02
  +2.28306358943e-01-j5.13819435071e-02
  +2.11879306845e-01-j5.57622134851e-02
  +1.96343370481e-01-j5.90552075068e-02
  +1.81703491719e-01-j6.14028245434e-02
  +1.67952139173e-01-j6.29343920132e-02
  +1.55071945422e-01-j6.37668121847e-02
  +1.43037982350e-01-j6.40049881204e-02
  +1.31819694303e-01-j6.37424413899e-02
  +1.21382517384e-01-j6.30620515554e-02
  +1.11689217594e-01-j6.20368630761e-02
  +1.02700981806e-01-j6.07309185601e-02
  +9.43782948652e-02-j5.92000882522e-02
  +8.66816340851e-02-j5.74928744776e-02
  +7.95720096607e-02-j5.56511767084e-02
  +7.30113764550e-02-j5.37110082799e-02
  +6.69629394675e-02-j5.17031598246e-02
  +6.13913722734e-02-j4.96538074700e-02
  +5.62629649054e-02-j4.75850659799e-02
  +5.15457151095e-02-j4.55154884942e-02
  +4.72093746495e-02-j4.34605155032e-02
  +4.32254603699e-02-j4.14328762829e-02
  +3.95672380311e-02-j3.94429463418e-02
  +3.62096854876e-02-j3.74990645460e-02
  +3.31294405576e-02-j3.56078135638e-02
  +3.03047379097e-02-j3.37742671542e-02
  +2.77153384369e-02-j3.20022076377e-02
  +2.53424538824e-02-j3.02943166740e-02
  +2.31686688967e-02-j2.86523422273e-02
  +2.11778622289e-02-j2.70772443615e-02
  +1.93551283643e-02-j2.55693222643e-02
  +1.76867006020e-02-j2.41283246682e-02
  +1.61598763119e-02-j2.27535456189e-02
  +1.47629449037e-02-j2.14439073364e-02
  +1.34851188756e-02-j2.01980317272e-02
  +1.23164681803e-02-j1.90143019356e-02
  +1.12478580426e-02-j1.78909151639e-02
  +1.02708902832e-02-j1.68259278539e-02
  +9.37784814125e-03-j1.58172941937e-02
  +8.56164453991e-03-j1.48628988019e-02
  +7.81577370633e-03-j1.39605843402e-02
  +7.13426603007e-03-j1.31081747154e-02
  +6.51164602699e-03-j1.23034944532e-02
  +5.94289326379e-03-j1.15443847539e-02
  +5.42340609131e-03-j1.08287166787e-02
  +4.94896803164e-03-j1.01544018601e-02
  +4.51571666370e-03-j9.51940107959e-03
  +4.12011485390e-03-j8.92173101539e-03
  +3.75892418205e-03-j8.35946942154e-03
  +3.42918041760e-03-j7.83075896978e-03
  +3.12817090681e-03-j7.33380995355e-03
  +2.85341373772e-03-j6.86690202892e-03
  +2.60263855663e-03-j6.42838514421e-03
  +2.37376891615e-03-j6.01667978989e-03
  +2.16490604228e-03-j5.63027668325e-03
  +1.97431391424e-03-j5.26773598647e-03
  +1.80040555778e-03-j4.92768614378e-03
  +1.64173045905e-03-j4.60882241115e-03
  +1.49696301225e-03-j4.30990514189e-03
  +1.36489192039e-03-j4.02975788257e-03
  +1.24441047402e-03-j3.76726532559e-03
  +1.13450763833e-03-j3.52137115797e-03
