<Qucs Dataset 0.0.18>
<indep frequency 200>
  +1.00000000000e+09
  +1.00904447271e+09
  +1.01817074791e+09
  +1.02737956546e+09
  +1.03667167190e+09
  +1.04604782055e+09
  +1.05550877152e+09
  +1.06505529180e+09
  +1.07468815533e+09
  +1.08440814302e+09
  +1.09421604288e+09
  +1.10411265002e+09
  +1.11409876675e+09
  +1.12417520265e+09
  +1.13434277459e+09
  +1.14460230687e+09
  +1.15495463120e+09
  +1.16540058684e+09
  +1.17594102065e+09
  +1.18657678712e+09
  +1.19730874849e+09
  +1.20813777480e+09
  +1.21906474393e+09
  +1.23009054175e+09
  +1.24121606208e+09
  +1.25244220689e+09
  +1.26376988625e+09
  +1.27520001850e+09
  +1.28673353027e+09
  +1.29837135658e+09
  +1.31011444088e+09
  +1.32196373519e+09
  +1.33392020012e+09
  +1.34598480497e+09
  +1.35815852781e+09
  +1.37044235556e+09
  +1.38283728404e+09
  +1.39534431813e+09
  +1.40796447173e+09
  +1.42069876798e+09
  +1.43354823922e+09
  +1.44651392715e+09
  +1.45959688289e+09
  +1.47279816707e+09
  +1.48611884990e+09
  +1.49956001129e+09
  +1.51312274089e+09
  +1.52680813823e+09
  +1.54061731278e+09
  +1.55455138402e+09
  +1.56861148159e+09
  +1.58279874534e+09
  +1.59711432540e+09
  +1.61155938233e+09
  +1.62613508719e+09
  +1.64084262161e+09
  +1.65568317793e+09
  +1.67065795925e+09
  +1.68576817958e+09
  +1.70101506388e+09
  +1.71639984820e+09
  +1.73192377980e+09
  +1.74758811716e+09
  +1.76339413020e+09
  +1.77934310029e+09
  +1.79543632041e+09
  +1.81167509521e+09
  +1.82806074118e+09
  +1.84459458667e+09
  +1.86127797207e+09
  +1.87811224990e+09
  +1.89509878490e+09
  +1.91223895414e+09
  +1.92953414718e+09
  +1.94698576612e+09
  +1.96459522576e+09
  +1.98236395367e+09
  +2.00029339035e+09
  +2.01838498934e+09
  +2.03664021730e+09
  +2.05506055417e+09
  +2.07364749327e+09
  +2.09240254144e+09
  +2.11132721913e+09
  +2.13042306055e+09
  +2.14969161379e+09
  +2.16913444093e+09
  +2.18875311819e+09
  +2.20854923604e+09
  +2.22852439934e+09
  +2.24868022746e+09
  +2.26901835441e+09
  +2.28954042900e+09
  +2.31024811494e+09
  +2.33114309097e+09
  +2.35222705105e+09
  +2.37350170442e+09
  +2.39496877582e+09
  +2.41663000556e+09
  +2.43848714970e+09
  +2.46054198019e+09
  +2.48279628499e+09
  +2.50525186824e+09
  +2.52791055040e+09
  +2.55077416839e+09
  +2.57384457575e+09
  +2.59712364278e+09
  +2.62061325670e+09
  +2.64431532179e+09
  +2.66823175956e+09
  +2.69236450890e+09
  +2.71671552623e+09
  +2.74128678568e+09
  +2.76608027921e+09
  +2.79109801681e+09
  +2.81634202666e+09
  +2.84181435527e+09
  +2.86751706766e+09
  +2.89345224753e+09
  +2.91962199743e+09
  +2.94602843892e+09
  +2.97267371274e+09
  +2.99955997902e+09
  +3.02668941740e+09
  +3.05406422724e+09
  +3.08168662781e+09
  +3.10955885842e+09
  +3.13768317866e+09
  +3.16606186855e+09
  +3.19469722873e+09
  +3.22359158064e+09
  +3.25274726673e+09
  +3.28216665062e+09
  +3.31185211733e+09
  +3.34180607343e+09
  +3.37203094727e+09
  +3.40252918916e+09
  +3.43330327157e+09
  +3.46435568932e+09
  +3.49568895982e+09
  +3.52730562323e+09
  +3.55920824268e+09
  +3.59139940451e+09
  +3.62388171842e+09
  +3.65665781774e+09
  +3.68973035959e+09
  +3.72310202514e+09
  +3.75677551982e+09
  +3.79075357349e+09
  +3.82503894075e+09
  +3.85963440107e+09
  +3.89454275909e+09
  +3.92976684480e+09
  +3.96530951380e+09
  +4.00117364749e+09
  +4.03736215336e+09
  +4.07387796519e+09
  +4.11072404328e+09
  +4.14790337471e+09
  +4.18541897360e+09
  +4.22327388130e+09
  +4.26147116667e+09
  +4.30001392636e+09
  +4.33890528498e+09
  +4.37814839543e+09
  +4.41774643912e+09
  +4.45770262624e+09
  +4.49802019600e+09
  +4.53870241692e+09
  +4.57975258708e+09
  +4.62117403439e+09
  +4.66297011684e+09
  +4.70514422282e+09
  +4.74769977135e+09
  +4.79064021238e+09
  +4.83396902706e+09
  +4.87768972801e+09
  +4.92180585966e+09
  +4.96632099845e+09
  +5.01123875320e+09
  +5.05656276536e+09
  +5.10229670931e+09
  +5.14844429267e+09
  +5.19500925659e+09
  +5.24199537605e+09
  +5.28940646018e+09
  +5.33724635258e+09
  +5.38551893157e+09
  +5.43422811059e+09
  +5.48337783845e+09
  +5.53297209968e+09
  +5.58301491486e+09
  +5.63351034091e+09
  +5.68446247146e+09
  +5.73587543717e+09
  +5.78775340604e+09
  +5.84010058379e+09
  +5.89292121416e+09
  +5.94621957927e+09
  +6.00000000000e+09
</indep>
<dep S[1,1] frequency>
  +7.67401033490e-01-j1.42643656101e-01
  +7.79296801959e-01-j1.49917437117e-01
  +7.94660856012e-01-j1.48821172220e-01
  +8.65343239360e-01-j2.08061615848e-01
  +7.68541118087e-01-j1.95422373791e-01
  +7.41299779593e-01-j2.74773305682e-01
  +6.23166752655e-01-j2.96214966422e-01
  +5.67221131687e-01-j2.16470477554e-01
  +2.17700193897e-01-j1.79165105618e-01
  +5.76671800645e-01-j8.12365893493e-02
  +6.10749233420e-01-j4.98425725636e-02
  +6.84015309207e-01-j5.38860926166e-02
  +7.32321948075e-01-j4.59874386346e-02
  +7.67228079814e-01-j1.06890345361e-01
  +7.90731797690e-01-j1.20073080363e-01
  +7.58683243554e-01-j9.27386522245e-02
  +7.44038265523e-01-j2.00739906474e-01
  +7.58816485056e-01-j2.88481510080e-01
  +6.83676777806e-01-j2.36545985304e-01
  +5.95539912445e-01-j3.99454383837e-01
  +5.51150474239e-01-j2.15700372721e-01
  +5.03416690037e-01-j1.26335784322e-01
  +5.35742868583e-01-j2.56650812386e-02
  +6.56045028028e-01+j4.78826086630e-01
  +7.47038824912e-01+j6.37452975415e-04
  +7.20797862739e-01-j8.04791340533e-02
  +7.47871557031e-01-j1.27165698806e-01
  +7.54496152549e-01-j1.04831490754e-01
  +7.77509266986e-01-j2.26861513881e-01
  +7.52265215561e-01-j2.79383836669e-01
  +6.74093558035e-01-j2.83621077321e-01
  +2.35967177188e-01-j5.44105149387e-01
  +3.79741251599e-01-j2.36524157539e-01
  +5.39845429481e-01-j3.75571780873e-02
  +5.79962927464e-01-j9.34052904796e-03
  +6.62228064160e-01-j6.71973361645e-02
  +7.39216682689e-01-j1.01593486219e-01
  +7.53181468504e-01-j1.04064843495e-01
  +7.42443803352e-01-j1.79216135934e-01
  +7.80279238620e-01-j1.27267404695e-01
  +8.11468665471e-01-j2.78838520463e-01
  +6.73091805439e-01-j2.68149433047e-01
  +3.35211997398e-01-j1.97692401248e-01
  +5.16788663719e-01-j1.66097285048e-02
  +5.91660128639e-01-j2.80395117970e-03
  +7.43727736110e-01-j3.90997626151e-02
  +7.79658487796e-01-j3.33096452655e-01
  +7.59797166219e-01-j9.96915382193e-02
  +6.44027254288e-01-j2.36030182615e-01
  +7.50115282934e-01-j1.89989270131e-01
  +6.92483724729e-01-j3.18688477217e-01
  +4.06615536590e-01-j2.30919513724e-01
  +4.58355161452e-01-j1.94157737110e-01
  +5.80830280632e-01-j6.30722444904e-02
  +6.15917845740e-01-j8.92560246057e-03
  +7.07758310905e-01-j3.86760123975e-02
  +7.65589212379e-01-j8.24290933439e-02
  +7.86694282624e-01-j8.79459215368e-02
  +6.73560487501e-01-j1.84602203834e-01
  +6.77703810583e-01-j2.79959349361e-01
  +4.75604012194e-01-j2.86991475483e-01
  +4.51575127310e-01-j7.95517852115e-02
  +7.01729789617e-01+j1.10654563407e-02
  +6.72625000076e-01+j8.90488454750e-03
  +7.38605024103e-01-j4.69059614751e-02
  +7.31731812577e-01-j1.03587861172e-01
  +7.00138520320e-01-j1.49464317774e-01
  +7.17502396236e-01-j2.86633863412e-01
  +6.81581811133e-01-j2.91488621925e-01
  +7.15532403093e-01-j5.31627269771e-02
  +5.12312621303e-01+j6.30878309358e-02
  +6.88152367620e-01+j6.58462011129e-03
  +7.55601645095e-01-j5.12628655761e-02
  +7.84138740360e-01-j6.95163711279e-02
  +6.39681226617e-01+j1.55402585097e-02
  +5.76211815573e-01-j3.18711916915e-01
  +4.26017063655e-01-j2.41798092059e-01
  +4.70605899031e-01+j1.84406238355e-02
  +4.13338439181e-01-j4.80525442193e-01
  +7.07949098985e-01-j1.36665858133e-02
  +7.83589709811e-01+j2.82300724444e-01
  +7.52167551160e-01-j1.68372430010e-01
  +6.19471684194e-01-j2.58959058910e-01
  +3.41363322652e-01-j1.44053889544e-01
  +5.18478472430e-01+j3.10688740893e-02
  +5.48832417974e-01+j4.42845140899e-03
  +7.14163830320e-01-j4.11571192859e-02
  +7.10341493277e-01-j8.92929060136e-02
  +7.03018439650e-01-j1.24319856067e-01
  +7.50514685211e-01-j3.46375484958e-01
  +4.52010424756e-01-j2.93383778449e-01
  +4.78421880276e-01+j6.45713866464e-02
  +7.04414184634e-01-j3.15422196618e-01
  +7.75098337018e-01-j1.82787663790e-02
  +7.74328714245e-01-j7.49100659533e-02
  +6.32171342110e-01-j2.17919894402e-01
  +5.34800749977e-01-j1.49368053281e-01
  +4.06306458738e-01+j5.82041841176e-02
  +6.32237162168e-01+j6.22250442117e-02
  +7.03120077556e-01-j1.89717841916e-02
  +7.27421196640e-01-j1.25357800289e-01
  +7.34036932973e-01-j3.62713803211e-01
  +8.51709432254e-03+j2.98563433434e-02
  +4.06504405861e-01+j2.83152820950e-02
  +7.01683939183e-01+j5.27225015905e-02
  +7.76837982914e-01-j2.29380888131e-02
  +7.31696212328e-01-j1.10805762943e-01
  +5.97271676576e-01-j2.32631805349e-01
  +3.36444212868e-01-j1.09967092315e-01
  +4.50257119276e-01+j7.11792244694e-02
  +7.52124056495e-01-j6.90184242114e-03
  +7.38328411904e-01-j7.28975211209e-02
  +7.44974720853e-01-j2.22983059515e-01
  +7.02969641063e-01-j3.63962879867e-01
  +4.71316703234e-01+j8.25817491232e-02
  +6.49159078668e-01+j3.56463676483e-02
  +7.04441532619e-01-j3.67014981984e-02
  +7.80873758438e-01-j1.34491521630e-01
  +4.32274045966e-01-j2.41108089191e-01
  +3.90656196574e-01+j4.26325354045e-02
  +6.71592517452e-01+j6.43078974597e-02
  +7.18119564559e-01-j3.44259054976e-02
  +7.19940339536e-01-j1.68747978327e-01
  +5.62986656458e-01-j2.00705554334e-01
  +5.57970258608e-01-j4.45048083671e-02
  +6.69662029828e-01+j5.83637065718e-02
  +6.83171384642e-01-j4.40804047131e-02
  +6.61138462425e-01-j1.70166309722e-01
  +3.88746988031e-01-j1.91371413328e-01
  +5.84691592530e-01+j1.26010364600e-01
  +5.79573894645e-01+j2.51221582245e-03
  +5.18494457303e-01+j4.44500491672e-01
  +6.45136748960e-01-j1.28602906122e-01
  +6.26642236136e-01+j8.34569852559e-02
  +5.82639906487e-01+j1.04216231535e-01
  +7.24304458903e-01-j3.81922246618e-02
  +6.60128798153e-01-j1.43425376210e-01
  +3.57706014908e-01-j1.02978444379e-01
  +8.36726780522e-01-j7.01861874603e-02
  +6.21696102096e-01+j5.34643522611e-02
  +7.23790522985e-01-j1.60040405368e-01
  +2.56919784792e-01-j7.21950735172e-02
  +5.49373774645e-01+j1.10829886204e-01
  +7.08842953862e-01+j1.37649825789e-02
  +6.71319146733e-01-j1.19798147898e-01
  +4.70859655265e-01+j9.12673594836e-02
  +4.60426619464e-01+j1.44870222544e-01
  +7.67867907659e-01-j1.35288214522e-03
  +6.68700604844e-01-j1.12856768021e-01
  +3.54851517051e-01-j1.53034050970e-01
  +6.73262585495e-01+j1.10517382630e-01
  +7.10231873320e-01-j6.94320468525e-03
  +6.79821527327e-01-j1.43685157325e-01
  +2.40805817426e-01-j2.16858719636e-02
  +7.73743548314e-01+j1.70291988473e-01
  +7.45514475276e-01-j5.08810712714e-02
  +5.58865790883e-01-j1.35485544115e-01
  +5.28559955786e-01+j1.31434761201e-01
  +6.39366716469e-01+j4.23445600552e-02
  +8.77248442631e-01-j7.84520540013e-02
  +3.02774860263e-01-j1.73410881241e-01
  +6.94438505774e-01+j8.94028422215e-02
  +7.29769569124e-01-j2.71296603221e-02
  +5.76644196432e-01-j1.87752408215e-01
  +6.35043745402e-01+j1.16416759427e-01
  +7.08132623584e-01+j1.75449726072e-02
  +5.97577201953e-01-j1.46468421837e-01
  +3.25755970056e-01+j9.05841896142e-02
  +6.33089571365e-01+j2.87448471340e-01
  +8.27593115926e-01-j1.34303939576e-01
  -1.07121703357e-02-j4.15771380330e-01
  +7.44035554756e-01+j5.33460974806e-02
  +6.39663708063e-01-j7.70250574682e-02
  +5.17899226388e-01-j8.66231219764e-02
  +7.34133011386e-01+j6.14898448195e-02
  +6.44272022242e-01-j5.52982592572e-02
  +3.30202363268e-01-j9.70147017270e-02
  +6.06632370329e-01+j6.89360206614e-02
  +7.02601894387e-01-j5.76423411416e-02
  +3.97800182302e-01-j8.08297535952e-02
  +6.49328665121e-01+j1.90590279907e-01
  +6.94077599249e-01-j6.48293475674e-02
  +3.53744462706e-01-j3.62495599815e-02
  +5.02604006546e-01+j4.99952669484e-02
  +5.45085184236e-01-j3.53313637661e-01
  +3.70705756066e-01+j8.25030681442e-02
  +7.03788154471e-01+j3.12707649659e-02
  +4.86519059959e-01-j1.56095313719e-01
  +6.84463683290e-01+j1.52759694075e-01
  +7.10176683454e-01+j4.82046729670e-01
  +4.97208792604e-01-j1.51920577674e-01
  +6.83280698605e-01+j1.31563778908e-01
  +6.66937698982e-01-j7.77871002314e-02
  +4.86268615103e-01+j9.76012809213e-02
  +7.07349013455e-01+j3.89246381545e-02
  +6.84551135133e-01-j1.06468134543e-01
  +6.55766151314e-01-j4.70363284972e-02
  +6.41445559758e-01-j5.95419433470e-02
  +4.46791323350e-01+j1.04486889784e-01
  +6.93290264077e-01+j5.25918167356e-02
</dep>
<dep S[1,2] frequency>
  +2.23223966510e-01+j1.39518656101e-01
  +2.23107044195e-01+j1.69148206348e-01
  +2.18852657502e-01+j1.30240091139e-01
  +1.13823427307e-01+j2.08061615848e-01
  +2.31458881913e-01+j2.57922373791e-01
  +2.27930989638e-01+j2.78619459528e-01
  +3.45583247345e-01+j3.27464966422e-01
  +4.90155917493e-01+j3.47618018538e-01
  +7.32299806103e-01+j2.79165105618e-01
  +4.46942926020e-01+j1.13218738847e-01
  +3.82045526406e-01+j7.08032712536e-02
  +2.99540458191e-01+j5.91291812725e-02
  +2.76011385259e-01+j1.26541053013e-02
  +2.43045892789e-01+j7.94930850875e-02
  +2.22682836456e-01+j1.40804787680e-01
  +1.78816756446e-01+j1.86488652224e-01
  +2.52115580631e-01+j2.31509137244e-01
  +2.23942135634e-01+j2.69084958356e-01
  +4.10073222194e-01+j3.30295985304e-01
  +3.85229318325e-01+j3.65800537683e-01
  +3.98849525761e-01+j5.15700372721e-01
  +4.60869024249e-01-j1.65213585349e-02
  +3.43744310904e-01+j6.15625171361e-02
  +3.64788305305e-01-j1.45492753296e-01
  +2.60255604796e-01-j1.12475325510e-02
  +2.67182906492e-01+j8.28829802072e-02
  +2.32161720839e-01+j1.23005965029e-01
  +2.47143191713e-01+j1.36798703869e-01
  +2.22490733014e-01+j1.95611513881e-01
  +1.55427092131e-01+j2.67845375130e-01
  +3.13843214012e-01+j2.91524571497e-01
  +7.64032822812e-01+j5.44105149387e-01
  +5.39224265643e-01+j2.64110364435e-01
  +4.56195837314e-01+j4.47548748243e-02
  +4.20780803943e-01+j1.44404015511e-02
  +3.51259817821e-01+j9.29086111908e-02
  +2.33283317311e-01+j1.06593486219e-01
  +2.37751173983e-01+j1.19608884946e-01
  +2.57556196648e-01+j1.79216135934e-01
  +2.82220761380e-01+j1.27267404695e-01
  +2.51031334529e-01+j2.78838520463e-01
  +3.58158194561e-01+j3.61899433047e-01
  +5.64788002602e-01+j2.47692401248e-01
  +5.52616435431e-01+j1.01595564199e-01
  +4.07637624170e-01-j8.70836892697e-02
  +3.13710002279e-01+j2.20479340308e-02
  +2.70341512204e-01+j2.33096452655e-01
  +2.64652711531e-01+j1.03359019882e-01
  +1.50972745712e-01+j1.76030182615e-01
  +2.70718050399e-01+j2.10822603465e-01
  +3.14869216447e-01+j2.89276712511e-01
  +5.93384463410e-01+j2.93419513724e-01
  +6.70510817929e-01+j3.59106190718e-01
  +3.51933611949e-01+j1.73681125107e-01
  +3.30119845141e-01-j1.26610530015e-02
  +3.03419127116e-01+j2.71026433289e-02
  +2.19410787621e-01+j6.24290933439e-02
  +3.75805717376e-01+j1.62945921537e-01
  +3.57689512499e-01+j1.84602203834e-01
  +3.24129930249e-01+j2.67734410486e-01
  +4.92864456274e-01+j2.64468952961e-01
  +4.53597286483e-01-j5.83792492712e-02
  +4.85770210383e-01-j2.01106545634e+00
  +3.41631000043e-01+j1.74427719207e-02
  +2.61394975897e-01+j4.69059614751e-02
  +2.31008572039e-01+j1.02385938095e-01
  +3.66037950268e-01+j1.64170200127e-01
  +3.26416522683e-01+j2.73120349898e-01
  +3.99499269948e-01+j3.05002135438e-01
  +3.68088286563e-01+j4.97144511151e-02
  +4.23202913009e-01-j2.68980050567e-02
  +3.13516771846e-01-j3.61726106085e-03
  +2.64911175418e-01+j4.86987630120e-02
  +1.86678380263e-01+j1.02590301089e-01
  +1.10318773383e-01+j2.34459741490e-01
  +3.58788184427e-01+j2.73711916915e-01
  +5.73982936345e-01+j2.91798092059e-01
  +4.68989646104e-01-j8.12409394099e-03
  +3.99161560819e-01+j4.80525442193e-01
  +2.37356577871e-01-j9.04083776751e-03
  +2.16410290189e-01-j2.82300724444e-01
  +3.47097154722e-01+j1.90431253539e-01
  +3.36609396887e-01+j2.45445545397e-01
  +6.37803344014e-01+j2.89887222878e-01
  +7.22551350496e-01+j9.93764967580e-03
  +4.47656346071e-01+j1.18952611910e-03
  +2.81420907737e-01+j3.83593295398e-02
  +2.58408506723e-01+j8.92929060136e-02
  +2.53878112075e-01+j1.41561235377e-01
  +3.71106936411e-01+j3.26105214688e-01
  +4.68721282561e-01+j3.29969144303e-01
  +5.71546889243e-01-j6.58206058844e-02
  +2.95585815366e-01+j1.31542219662e+00
  +1.68651662982e-01+j5.77876637902e-03
  +1.94542881086e-01+j7.68555912451e-02
  +3.41358069654e-01+j2.23802247343e-01
  +4.65199250023e-01+j1.49368053281e-01
  +5.45232002801e-01-j4.58964918099e-02
  +3.68624906798e-01-j5.18802166255e-02
  +3.36749388959e-01-j3.55117572386e-02
  +2.76255273948e-01+j1.10651917936e-01
  +1.59630670270e-02+j3.62713803211e-01
  +1.05398290568e+00-j2.17356343343e-01
  +9.34955941385e-02-j9.08152820950e-02
  +2.99285274044e-01-j5.63713043271e-02
  +3.16304040433e-01+j3.26657152722e-02
  +2.49073018441e-01+j9.79852501223e-02
  +4.06176599286e-01+j2.74011115693e-01
  +6.18955469503e-01+j1.22672227307e-01
  +2.99742880724e-01-j7.11792244694e-02
  +2.98797988769e-01-j2.15977384674e-02
  +2.62102622579e-01+j6.77251073278e-02
  +1.80025279147e-01+j7.29830595154e-02
  +3.92618594232e-01+j2.46315821043e-01
  +5.28683296766e-01-j8.25817491232e-02
  +3.48010732653e-01-j2.05520280257e-02
  +3.05807925082e-01+j4.47275285671e-02
  +3.69126241562e-01+j2.09491521630e-01
  +5.17725954034e-01+j3.07774755857e-01
  +6.09343803426e-01-j4.26325354045e-02
  +3.11963249946e-01-j5.90648088038e-02
  +2.89706898398e-01+j3.44835590001e-02
  +2.99025177706e-01+j1.91161771430e-01
  +5.40616947146e-01+j2.45750599379e-01
  +5.36857327599e-01-j9.34262261157e-02
  +3.50304692302e-01-j6.25234403488e-02
  +3.16342234036e-01+j5.18625058804e-02
  +3.51361537575e-01+j1.95166309722e-01
  +5.29201729917e-01+j1.81115003072e-01
  +4.06908407470e-01-j9.72103646003e-02
  +3.61463841204e-01-j2.13801403507e-02
  +2.31505542697e-01-j4.44500491672e-01
  +4.42363251040e-01+j2.03602906122e-01
  +3.73357763864e-01-j8.34569852559e-02
  +4.11110093513e-01-j1.16716231535e-01
  +2.86148127304e-01+j3.77611901790e-02
  +3.56763093739e-01+j1.67074024859e-01
  +6.84586814633e-01+j1.08989607969e-01
  +4.75773219478e-01+j7.01861874603e-02
  +2.49534149079e-01+j3.49764965677e-02
  +3.09127626481e-01+j1.65378483660e-01
  +7.50433156385e-01+j1.01606838223e-01
  +3.99883651097e-01-j1.18255628778e-01
  +2.93083416001e-01-j8.62799627753e-03
  +3.07847519934e-01+j1.14589814564e-01
  +5.29140344735e-01-j9.12673594836e-02
  +4.86688765152e-01-j1.59293299467e-01
  +2.31698165010e-01-j4.98541136428e-04
  +3.31299395156e-01+j1.12856768021e-01
  +6.12456175257e-01+j1.64572512509e-01
  +3.51737414505e-01-j1.85517382630e-01
  +2.89768126680e-01+j6.94320468525e-03
  +3.08500684303e-01+j1.18423002893e-01
  +5.12920144112e-01-j8.12182034407e-03
  +2.91256451686e-01-j9.02919884733e-02
  +2.63507782276e-01+j4.91322636403e-02
  +4.41134209117e-01+j1.35485544115e-01
  +4.71440044214e-01-j1.31434761201e-01
  +2.98194259141e-01-j4.42957795674e-02
  +2.41982326600e-01+j1.24605900155e-01
  +5.92307106950e-01+j1.27509241897e-01
  +4.42729635819e-01-j1.46924966115e-01
  +2.49540775704e-01+j2.54055223910e-02
  +4.38656466953e-01+j1.81974535328e-01
  +3.18234943123e-01-j8.03511856570e-02
  +3.53459825593e-01-j2.72255147175e-02
  +3.89526589222e-01+j1.51751206176e-01
  +6.24244029944e-01-j9.05841896142e-02
  +4.91910428635e-01-j3.74484713400e-02
  +1.27463063849e-01+j1.62393827217e-01
  +1.01071217034e+00+j4.15771380330e-01
  +2.55960823477e-01-j5.33439499192e-02
  +3.18525947110e-01+j7.87491953992e-02
  +6.07100773612e-01+j8.66231219764e-02
  +3.31251603999e-01-j3.84129217425e-02
  +3.22709109833e-01+j6.47322215213e-02
  +7.23015458515e-01+j1.29192919549e-01
  +3.75418911723e-01-j9.20129437383e-02
  +2.81666398296e-01+j6.10569752879e-02
  +4.89699817698e-01+j5.58297535952e-02
  +3.25671334879e-01-j1.40590279907e-01
  +2.74944665997e-01+j6.77335102005e-02
  +6.26225863704e-01+j6.41251376143e-04
  +4.09895993454e-01+j4.73305156259e-06
  +3.04914815764e-01+j3.53313637661e-01
  +5.44834784474e-01-j7.57463113874e-02
  +3.26699650408e-01-j5.56610088683e-02
  +6.09069175336e-01+j2.73742372542e-01
  +4.14040057358e-01-j1.82684881108e-01
  +2.89823316546e-01+j4.87650240027e-01
  +5.34041207396e-01+j1.20670577674e-01
  +3.01269863193e-01-j1.06282880031e-01
