<Qucs Dataset 0.0.18>
<indep frequency 200>
  +1.00000000000e+09
  +1.01163797977e+09
  +1.02341140211e+09
  +1.03532184330e+09
  +1.04737089796e+09
  +1.05956017928e+09
  +1.07189131921e+09
  +1.08436596869e+09
  +1.09698579789e+09
  +1.10975249641e+09
  +1.12266777351e+09
  +1.13573335834e+09
  +1.14895100019e+09
  +1.16232246868e+09
  +1.17584955405e+09
  +1.18953406737e+09
  +1.20337784078e+09
  +1.21738272774e+09
  +1.23155060329e+09
  +1.24588336430e+09
  +1.26038292968e+09
  +1.27505124071e+09
  +1.28989026125e+09
  +1.30490197801e+09
  +1.32008840083e+09
  +1.33545156293e+09
  +1.35099352120e+09
  +1.36671635646e+09
  +1.38262217376e+09
  +1.39871310265e+09
  +1.41499129743e+09
  +1.43145893752e+09
  +1.44811822767e+09
  +1.46497139831e+09
  +1.48202070580e+09
  +1.49926843279e+09
  +1.51671688847e+09
  +1.53436840893e+09
  +1.55222535743e+09
  +1.57029012473e+09
  +1.58856512943e+09
  +1.60705281826e+09
  +1.62575566644e+09
  +1.64467617799e+09
  +1.66381688608e+09
  +1.68318035333e+09
  +1.70276917223e+09
  +1.72258596540e+09
  +1.74263338601e+09
  +1.76291411810e+09
  +1.78343087693e+09
  +1.80418640939e+09
  +1.82518349432e+09
  +1.84642494290e+09
  +1.86791359902e+09
  +1.88965233969e+09
  +1.91164407539e+09
  +1.93389175046e+09
  +1.95639834352e+09
  +1.97916686785e+09
  +2.00220037182e+09
  +2.02550193923e+09
  +2.04907468982e+09
  +2.07292177960e+09
  +2.09704640132e+09
  +2.12145178491e+09
  +2.14614119786e+09
  +2.17111794569e+09
  +2.19638537242e+09
  +2.22194686094e+09
  +2.24780583355e+09
  +2.27396575236e+09
  +2.30043011977e+09
  +2.32720247896e+09
  +2.35428641432e+09
  +2.38168555198e+09
  +2.40940356024e+09
  +2.43744415012e+09
  +2.46581107582e+09
  +2.49450813523e+09
  +2.52353917043e+09
  +2.55290806824e+09
  +2.58261876068e+09
  +2.61267522556e+09
  +2.64308148697e+09
  +2.67384161584e+09
  +2.70495973046e+09
  +2.73643999707e+09
  +2.76828663039e+09
  +2.80050389418e+09
  +2.83309610184e+09
  +2.86606761695e+09
  +2.89942285388e+09
  +2.93316627839e+09
  +2.96730240819e+09
  +3.00183581358e+09
  +3.03677111804e+09
  +3.07211299886e+09
  +3.10786618778e+09
  +3.14403547159e+09
  +3.18062569279e+09
  +3.21764175025e+09
  +3.25508859984e+09
  +3.29297125510e+09
  +3.33129478793e+09
  +3.37006432927e+09
  +3.40928506975e+09
  +3.44896226041e+09
  +3.48910121341e+09
  +3.52970730273e+09
  +3.57078596490e+09
  +3.61234269971e+09
  +3.65438307096e+09
  +3.69691270720e+09
  +3.73993730248e+09
  +3.78346261713e+09
  +3.82749447852e+09
  +3.87203878181e+09
  +3.91710149081e+09
  +3.96268863870e+09
  +4.00880632890e+09
  +4.05546073584e+09
  +4.10265810583e+09
  +4.15040475785e+09
  +4.19870708444e+09
  +4.24757155254e+09
  +4.29700470432e+09
  +4.34701315813e+09
  +4.39760360930e+09
  +4.44878283113e+09
  +4.50055767570e+09
  +4.55293507487e+09
  +4.60592204115e+09
  +4.65952566866e+09
  +4.71375313412e+09
  +4.76861169771e+09
  +4.82410870417e+09
  +4.88025158365e+09
  +4.93704785284e+09
  +4.99450511586e+09
  +5.05263106534e+09
  +5.11143348344e+09
  +5.17092024290e+09
  +5.23109930806e+09
  +5.29197873596e+09
  +5.35356667741e+09
  +5.41587137808e+09
  +5.47890117959e+09
  +5.54266452066e+09
  +5.60716993821e+09
  +5.67242606849e+09
  +5.73844164830e+09
  +5.80522551609e+09
  +5.87278661319e+09
  +5.94113398497e+09
  +6.01027678207e+09
  +6.08022426165e+09
  +6.15098578858e+09
  +6.22257083673e+09
  +6.29498899022e+09
  +6.36824994472e+09
  +6.44236350872e+09
  +6.51733960488e+09
  +6.59318827133e+09
  +6.66991966303e+09
  +6.74754405311e+09
  +6.82607183427e+09
  +6.90551352016e+09
  +6.98587974679e+09
  +7.06718127393e+09
  +7.14942898660e+09
  +7.23263389648e+09
  +7.31680714343e+09
  +7.40195999692e+09
  +7.48810385759e+09
  +7.57525025877e+09
  +7.66341086801e+09
  +7.75259748863e+09
  +7.84282206134e+09
  +7.93409666580e+09
  +8.02643352226e+09
  +8.11984499318e+09
  +8.21434358492e+09
  +8.30994194935e+09
  +8.40665288562e+09
  +8.50448934180e+09
  +8.60346441668e+09
  +8.70359136149e+09
  +8.80488358164e+09
  +8.90735463861e+09
  +9.01101825167e+09
  +9.11588829975e+09
  +9.22197882333e+09
  +9.32930402628e+09
  +9.43787827778e+09
  +9.54771611421e+09
  +9.65883224116e+09
  +9.77124153535e+09
  +9.88495904663e+09
  +1.00000000000e+10
</indep>
<dep S[2,2] frequency>
  +6.46361468478e-01-j3.44694102957e-01
  +7.06875466960e-01-j1.77005381412e-01
  +5.79931175988e-01-j4.25959991762e-01
  +7.02995185689e-01-j1.74900160093e-01
  +7.01082750640e-01-j1.73806575009e-01
  +6.64699911157e-01-j3.36523720094e-01
  +7.26152714619e-01-j3.15852613818e-01
  +5.76539629545e-01-j3.42417470713e-01
  +4.28909689888e-01-j6.10535124132e-01
  +7.12634355289e-01-j3.14038509087e-01
  +2.50007296763e-01-j2.47037735960e-01
  +5.18234525975e-01-j3.25856802140e-01
  +5.83034549276e-01-j4.06042150753e-01
  +6.67510916937e-01-j3.70352866316e-01
  +5.16376361321e-01-j1.62237685812e-01
  +6.69816634433e-01-j2.53315104398e-01
  +6.20237343488e-01-j3.74704972349e-01
  +7.66278773452e-01-j3.05572567625e-01
  +5.61035267583e-01-j3.30328170049e-01
  +8.24817799913e-01-j3.55978898513e-01
  +5.71885893153e-01-j2.62805243890e-01
  +5.27517635750e-01-j3.19464784831e-01
  +5.93217640428e-01-j2.67491704996e-01
  +5.18624718604e-01-j3.25799653309e-01
  +5.86684649576e-01-j3.45029050936e-01
  +5.32323771161e-01-j3.81495360949e-01
  +6.64205400470e-01-j4.80165982082e-01
  +5.91346451944e-01-j3.06211040968e-01
  +5.73130611267e-01-j2.91213559179e-01
  +6.15730182283e-01-j3.06523785575e-01
  +5.58611131822e-01-j2.91453836835e-01
  +5.57265297957e-01-j4.40095698838e-01
  +5.38959235214e-01-j3.48166879135e-01
  +1.54636231338e-01-j6.37365842772e-01
  +5.09383902885e-01-j3.32492875139e-01
  +4.86705258899e-01-j3.11543263784e-01
  +4.18174134494e-01-j3.06509596514e-01
  +6.03471375846e-01-j2.62630620651e-01
  +5.06913759915e-01-j2.60194840731e-01
  +7.72241170969e-01-j7.54091983303e-01
  +7.08579001565e-01-j4.40204057261e-01
  +4.88686529031e-01-j3.29439369614e-01
  +5.18813592107e-01-j3.12423200365e-01
  +5.31598914091e-01-j2.90197488036e-01
  +3.53164120225e-01-j4.29829804038e-01
  +5.23587842107e-01-j2.30835224009e-01
  +6.24807947433e-01-j1.78172551905e-01
  +5.55152677117e-01-j1.17954360580e-01
  +6.18245908910e-01-j2.70405880389e-01
  +6.36485647146e-01-j6.15165343792e-01
  +4.22277435204e-01-j2.16712604275e-01
  +4.67891067667e-01-j3.62378186190e-01
  +4.40551162970e-01-j1.80292749444e-01
  +4.97565606885e-01-j2.98783706750e-01
  +9.31798355201e-01-j5.08204467038e-01
  +3.29543249662e-01-j2.43802145396e-01
  +6.30044816617e-01-j6.05428817888e-01
  +4.26693268340e-01-j2.71543550592e-01
  +5.76887680267e-01-j3.08542549749e-01
  +3.87539617294e-01-j2.81278904007e-01
  +4.60070447956e-01-j2.66566479233e-01
  +3.38279327418e-01-j3.31399768201e-01
  +5.07202226094e-01-j1.08384715485e-01
  +5.99424496397e-01-j2.70777045968e-01
  +4.23684587433e-01-j3.19408025566e-01
  +6.22959828339e-01-j5.93041805755e-01
  +2.84728357072e-01-j1.92198417314e-01
  +3.77679689140e-01-j2.50674509451e-01
  +4.50065223380e-01-j2.24221035090e-01
  +3.34494052960e-01+j5.52503022698e-02
  +3.18186510592e-01-j2.23242302283e-01
  +4.97606908502e-01-j2.19334699728e-01
  +4.16387765749e-01-j2.37810413082e-01
  +5.14742390266e-01-j1.70458880528e-01
  +4.44009438205e-01-j1.96270960158e-01
  +4.81886990839e-01-j1.56475712242e-01
  +4.41409131698e-01-j1.91598296675e-01
  +3.55373326358e-01-j2.56895977659e-01
  +2.78289438294e-01-j1.33265406872e-01
  +4.67953503167e-01-j3.91327063309e-01
  +2.85094147188e-01-j1.74461223271e-01
  +4.56782086128e-01-j2.01302391973e-01
  +4.26989557480e-01-j1.89584563884e-01
  +4.00412922343e-01-j1.53936182315e-01
  +3.30561605933e-01-j1.61463575731e-01
  +3.23850008864e-01-j2.03916721119e-01
  +1.70899719492e-01+j1.48763951271e-02
  +2.90421667799e-01-j1.84456787942e-01
  +6.68855957816e-01-j3.27254437428e-01
  +6.01922807848e-01+j2.71865671840e-04
  +6.09208488153e-01+j9.40011676077e-01
  +5.46312397409e-01+j4.41286282560e-01
  +3.58426697231e-01-j1.32442751207e-01
  +5.24717910995e-01-j9.78420633831e-02
  +4.62820372553e-01-j8.91414511071e-02
  +4.82330521286e-01+j4.46348606987e-01
  +2.77674633909e-01-j1.00670533236e-01
  +7.02154756664e-01+j1.96049595247e-01
  +7.31322872148e-01-j2.99891583930e-01
  +3.83783830831e-01+j3.95799315725e-01
  -1.59686057116e-01-j1.70478924524e-01
  +6.05400267609e-01-j1.39912150659e-01
  +3.55111063851e-01-j4.08561886078e-01
  -6.59008745770e-02-j5.07106694650e-01
  +1.44595050193e-01-j1.70575585269e-01
  +5.28434777395e-01-j3.30889571351e-01
  +2.98487321965e-01-j2.62232297823e-01
  +3.26983574070e-01-j9.55710056722e-02
  -4.64395228923e-02-j2.37570119055e-01
  -7.16681500172e-02+j1.13645649933e-01
  +3.53111479563e-01-j1.03514129366e+00
  +3.56141817759e-01-j8.58115518790e-02
  +5.31616719509e-01-j8.17426351257e-02
  +3.60191328875e-01-j9.30561290613e-02
  +4.16470097349e-01-j2.42704101446e-01
  +3.47469144800e-01-j9.12645127286e-02
  -1.06946304211e-01+j8.16732901789e-02
  +1.85126207339e-01-j1.36005289929e+00
  +2.40498562781e-01-j8.88991896901e-02
  +2.90266290593e-01-j6.53089922831e-02
  +2.88557448876e-01-j5.97620737208e-02
  +4.76208694509e-01-j4.53923823971e-02
  +4.77701127410e-01-j3.49056006703e-02
  +4.18632974186e-01-j6.68692586324e-02
  +2.25848200168e-01+j5.98159998306e+00
  +2.97493355364e-01-j5.04298911508e-02
  +2.24281940808e-01-j1.93905490453e-02
  +6.78844513977e-01-j1.64324662348e-01
  +4.76194478694e-01-j2.14249227203e-02
  +2.75711911268e-01-j4.86247086123e-02
  +4.62737161132e-01-j6.50190474186e-02
  +3.49168806117e-01-j2.17694997013e-02
  +2.66868313520e-01-j8.97875715466e-03
  +4.75412244024e-01-j1.40861534357e-01
  +2.56565954949e-01-j1.98130622039e-02
  +4.09104756600e-01-j2.61179329285e-02
  +5.85747921112e-01+j5.47483902970e-02
  +8.38703992333e-01+j6.93325232799e-02
  +2.43630886236e-01+j4.70211220854e-03
  +2.25616408605e-01-j9.64386678303e-03
  +5.37261056529e-02-j2.37478065534e-01
  +3.36565274178e-01+j1.37791052129e+00
  +3.27291462682e-01-j5.81544433529e+00
  +3.50038199584e-01+j1.04191728045e-02
  +1.24827328076e-01+j7.87928506963e-02
  -3.31478764665e-02+j2.19746069006e-01
  +3.50137870089e-01+j7.42489241689e-03
  +1.77937637405e-01-j9.95796906363e-02
  +3.51826481016e-01+j2.52338586769e-02
  +4.70444542919e-01+j5.53373481059e-02
  +3.03627685780e-01+j3.17952916269e-02
  +3.42557460696e-01+j4.24130168678e-02
  +2.24548978478e-01+j4.56957030267e-02
  +3.30583963509e-01+j5.12632851034e-02
  +2.64410872795e-01+j2.63249473618e-02
  +7.05795340034e-01-j4.60404952070e-02
  +3.51222590460e-01+j5.26787831106e-02
  +6.02500595155e-01+j4.37300189095e-02
  +2.86976525377e-01+j5.76233454481e-02
  +4.93726240683e-01+j7.09041802848e-02
  +1.41602765545e-01+j1.15750349748e-01
  +4.39586153566e-01+j4.11385270685e-02
  +2.26741008304e-01+j1.02633196179e+00
  +1.96498055073e-01+j9.50950271229e-02
  +3.52603954328e-01+j6.69121816022e-02
  +3.54874644214e-01+j7.88915891507e-02
  +3.63145010189e-01+j7.87178758787e-02
  +2.58880651835e-01-j9.67668275564e-01
  +4.77832173792e-01+j3.35387582999e-02
  +3.53041747333e-01+j3.47483338642e-02
  +4.78259458708e-01+j8.28355257467e-02
  +2.82539451235e-01+j1.11499731234e-01
  -1.46280344966e-01+j1.00893048590e-01
  +7.36344587081e-02+j2.56006962847e-01
  +2.87579271821e-01+j1.06984749299e-01
  +2.57216455007e-01+j9.69260645580e-02
  +3.86152087675e-01+j1.25343862733e-01
  +4.66130286697e-01+j1.10497250137e-01
  +1.88638789463e-01+j1.49927289338e-01
  +1.59781446744e-02+j2.35678667276e-01
  +3.55905282009e-01-j3.51758519427e-01
  +3.56219062831e-01+j1.04948685068e+00
  +2.31542250828e-01+j5.50735582043e-01
  +3.46370769437e-01+j1.52828057947e-01
  +1.56236959587e-01+j2.49321745800e-01
  +7.81577589491e-02+j2.70188676050e-01
  +3.96493145823e-01+j1.30288418806e-01
  +5.96234814050e-01+j2.01858797590e-01
  +7.66220386411e-01+j3.04876345106e-01
  +3.50458154222e-01+j1.63022701119e-01
  +4.87820315801e-01+j6.67862236246e-02
  +4.23367369346e-01+j1.70940556516e-01
  +4.49361580103e-01+j1.59307138175e-01
  +5.51932513212e-01+j1.62744119647e-01
  -1.38797301968e-01+j3.15996808783e-01
  +3.88207000858e-01+j1.51313068635e-01
  -1.28700629041e-02-j1.81408167655e-01
  +3.71585204763e-01+j1.41689827864e-01
  +4.02986769938e-01+j2.09334113337e-01
  +4.36524739470e-01+j2.49595742451e-01
</dep>
<dep S[2,1] frequency>
  +3.53638531522e-01+j2.61360769624e-01
  +2.93113308761e-01+j1.77018466695e-01
  +4.20068824012e-01+j1.75959991762e-01
  -7.02995185689e-01-j7.50998399074e-02
  +2.98926701371e-01+j1.73816931956e-01
  +4.21506985395e-01+j3.71006478715e-01
  +3.26731900766e-01+j3.01429536895e-01
  +3.97672404839e-01+j3.35254146931e-01
  +3.50502074818e-01+j4.92888065309e-01
  +3.49865644711e-01+j2.93205175753e-01
  +2.19992703237e-01+j2.87037735960e-01
  +4.21765474025e-01+j3.45856802140e-01
  +2.18689588655e-01+j2.76731805925e-01
  +3.66971841683e-01+j2.84145969764e-01
  +4.83623638679e-01+j4.95571019146e-01
  +3.22491057875e-01+j1.91776642859e-01
  +4.11774851634e-01+j3.36595216251e-01
  +3.80780050077e-01+j3.93807861743e-01
  +4.38964732417e-01+j3.30328170049e-01
  +2.00182200087e-01+j4.05978898513e-01
  +3.40276269009e-01+j2.35778216863e-01
  +4.04964116075e-01+j3.17639967312e-01
  +4.39474667264e-01+j2.79030166534e-01
  +5.31375281396e-01+j5.50799653309e-01
  +4.38067825672e-01+j3.47504298461e-01
  +3.67676228839e-01+j2.48162027615e-01
  +1.69127932863e-01+j3.13499315415e-01
  +4.44367833771e-01+j3.06211040968e-01
  +3.97457624027e-01+j4.08860618002e-01
  +3.95331764619e-01+j2.22452989115e-01
  +3.41388868178e-01+j2.91453836835e-01
  +8.92734702043e-01+j5.40095698838e-01
  +3.76135104408e-01+j3.00997067814e-01
  +3.45363768662e-01-j3.62634157228e-01
  +4.60460455091e-01+j3.14983147512e-01
  +4.82525510332e-01+j3.07697109938e-01
  +5.24895172437e-01+j3.75816527207e-01
  +4.50374778000e-01+j3.31861389882e-01
  +4.83652277821e-01+j2.93213708656e-01
  +2.90258829031e-01+j6.91591983303e-01
  +3.53920998435e-01+j3.77704057261e-01
  +5.11313470969e-01+j2.98189369614e-01
  +4.18686407893e-01+j4.37423200365e-01
  +4.68401085909e-01+j2.34641932480e-01
  +4.54528187467e-01+j3.91368265576e-01
  +4.09898396425e-01+j2.85881095568e-01
  +3.01662640802e-01+j3.84054904846e-01
  +4.44847322883e-01+j7.62876939132e-02
  +4.50984860321e-01+j3.24252034236e-01
  +6.13514352854e-01+j1.11516534379e+00
  +5.77722564796e-01+j2.16712604275e-01
  +5.32108932333e-01+j2.79044852857e-01
  +6.55983490495e-01+j2.14946214791e-01
  +4.28110068790e-01+j2.44729652696e-01
  +1.18201644799e-01+j6.08204467038e-01
  +5.95114284584e-01+j2.09555570054e-01
  +3.69955183383e-01+j1.05428817888e-01
  +5.73306731660e-01+j2.71543550592e-01
  +5.33406437380e-01+j2.49719020337e-01
  +6.12460382706e-01+j2.81278904007e-01
  +4.56596218711e-01+j2.66566479233e-01
  +5.72679576691e-01+j2.35509357242e-01
  +4.64707886266e-01+j1.53328535709e-01
  +5.50575503603e-01+j3.20777045968e-01
  +6.26315412567e-01+j2.19408025566e-01
  +5.27040171661e-01+j3.93041805755e-01
  +6.74977015545e-01+j2.25127360121e-01
  +5.41028551394e-01+j1.97222393638e-01
  +5.55137088759e-01+j2.08036063992e-01
  +6.29791661326e-01-j5.52503022698e-02
  +8.90717598998e-01+j1.13653261187e-01
  +5.02393091498e-01+j2.19334699728e-01
  +6.66801142396e-01+j2.41276617588e-01
  +3.67281979690e-02-j3.54234724130e-02
  +6.90605946411e-01+j1.19347883235e-01
  +4.54503541705e-01+j1.09138434135e-01
  +5.58272396964e-01+j2.00515494127e-01
  +6.94626673642e-01+j1.56895977659e-01
  +8.27479792475e-01+j3.71115607182e-02
  +5.32046496833e-01+j3.91327063309e-01
  +6.80641893421e-01+j1.94765791799e-01
  +4.93966043548e-01+j2.16264985489e-01
  +4.84707690227e-01+j2.28575389572e-01
  +6.00020353220e-01+j1.64334795834e-01
  +6.63188394067e-01+j1.42713575731e-01
  +6.82399991136e-01+j1.85166721119e-01
  +3.49100280508e-01+j3.45123604873e-01
  +7.06660044263e-01+j1.37764180938e-01
  +3.23791101008e-01+j2.97842672722e-01
  +3.98077192152e-01-j2.71865671840e-04
  +8.90791511847e-01+j5.99883239232e-02
  +6.41187602591e-01-j4.41286282560e-01
  +6.41573302769e-01+j1.44942751207e-01
  +4.75282089005e-01+j1.60342063383e-01
  +5.33512145784e-01+j1.13591328858e-01
  +7.67669478714e-01-j9.46348606987e-01
  +7.15428814367e-01+j1.83429153926e-01
  +2.69755355695e-01-j1.51105775022e-01
  +6.86771278518e-02+j3.99891583930e-01
  +6.16216169169e-01+j4.86451287191e-02
  +1.15199374942e+00+j1.08940462985e-01
  +3.94599732391e-01+j7.74121506593e-02
  +6.22161663422e-01-j1.36892659377e-01
  +9.22608191650e-01+j4.21740840991e-01
  +8.64301746960e-01+j1.42105834380e-01
  +5.66392808811e-01+j1.92958536869e-01
  +7.01512678035e-01-j1.82212146621e-01
  +6.10288932603e-01+j9.84829202560e-02
  +6.33939522892e-01+j6.25701190554e-02
  +8.71668150017e-01-j1.36456499328e-02
  +6.46888520437e-01+j1.03514129366e+00
  +6.01705134252e-01+j9.35936530463e-02
  +4.83089162843e-01+j2.29191057140e-02
  +7.59039440356e-01+j1.39209975215e-01
  +4.10963530970e-01+j3.31199676667e-01
  +7.01785050352e-01+j8.13204480921e-02
  +6.68590139828e-01+j8.27102714650e-02
  +6.48207125994e-01+j2.67195659586e-02
  +8.75531260145e-01+j1.29905713455e-01
  +7.09489806968e-01+j7.31138703319e-02
  +6.80240231930e-01+j6.58652168395e-02
  +6.48791305491e-01+j5.71111323971e-02
  +5.20531709690e-01+j5.03281132546e-02
  +7.06155928106e-01+j6.87992948206e-02
  +8.99151799832e-01-j3.98159998306e+00
  +7.57795567653e-01+j5.42693996938e-02
  +7.75718059192e-01+j1.93905490453e-02
  +6.58344098122e-01+j4.33282210666e-02
  +5.85760990812e-01+j2.72332479866e-02
  +7.64282957896e-01+j5.56026460161e-02
  +5.36394984205e-01+j6.13162008553e-02
  +7.74742132896e-01+j1.01528491689e-02
  +7.33131686480e-01+j8.97875715466e-03
  +7.86801893190e-01-j1.12776719281e-01
  +7.43434045051e-01+j1.98130622039e-02
  +6.52158877740e-01+j1.87572443479e-02
  +4.13805264244e-01-j5.29034782186e-02
  +1.61296007667e-01-j6.93325232799e-02
  +7.21088971157e-01-j9.25488672259e-04
  +8.98785532518e-01+j1.82693919976e-02
  +8.02056873433e-01+j1.13964073989e-01
  +6.74187413994e-01-j1.37791052129e+00
  +6.72708537318e-01+j7.26998978984e+00
  +6.49961800416e-01-j1.10702144712e-02
  +6.47577103449e-01-j1.21005894118e-02
  +1.22559290560e+00-j3.24989444311e-01
  +6.47680921857e-01-j1.14517380545e-02
  +8.33169896400e-01+j8.41257305590e-02
  +6.47833315849e-01-j2.85471413906e-02
  +7.76177893752e-01-j2.44567690950e-02
  +6.96418523827e-01-j3.25024995219e-02
  +5.02165547796e-01-j8.44672020679e-02
  +7.75451021522e-01-j4.56957030267e-02
  +7.67709805037e-01-j3.78554029627e-03
  +5.04865521036e-01-j8.80094076228e-02
  +4.10307862813e-01+j1.75707443173e-02
  +6.84448991844e-01-j5.74615650955e-02
  +3.97013023522e-01-j5.15121200769e-02
  +7.12840770604e-01-j5.37256596990e-02
  +5.41985198137e-01-j7.05853281525e-02
  +8.41184119701e-01-j1.55094612043e-01
  +5.23413846434e-01-j2.51385270685e-02
  +6.48258991696e-01-j5.26331961792e-01
  +8.00123566549e-01-j1.15365297393e-01
  +6.19575409220e-01-j6.99980060959e-02
  +6.44886882018e-01-j8.33430994846e-02
  +6.39531967800e-01-j6.68201959263e-02
  +6.78619348165e-01+j2.17668275564e-01
  +5.22167826208e-01-j3.35387582999e-02
  +7.71958252667e-01-j3.47483338642e-02
  +5.84240541292e-01-j9.06480257467e-02
  +6.33001089305e-01-j1.18256487991e-01
  +1.39628034497e+00-j1.00893048590e-01
  +6.34562262603e-01-j6.58430284205e-02
  +7.12420728179e-01-j1.06984749299e-01
  +7.92035415317e-01-j1.11888658074e-01
  +6.95258168735e-01-j1.09959247348e-01
  +5.61647491081e-01-j1.17441694582e-01
  +6.44694543870e-01-j1.18677289338e-01
  +8.68927515703e-01-j1.82848478597e-01
  +6.44094717991e-01+j1.51758519427e-01
  +1.14378093717e+00-j1.04948685068e+00
  +7.68457749172e-01-j5.50735582043e-01
  +7.22956961655e-01-j1.61231419292e-01
  +7.75135589433e-01-j1.90498216388e-01
  +1.00517557438e+00-j2.70188676050e-01
  +6.44668032687e-01-j1.18156703035e-01
  +4.84799668709e-01-j1.74272590693e-01
  +5.62546736877e-01-j1.81588673873e-01
  +6.89197018192e-01-j2.38884770085e-01
  +7.02090663428e-01-j1.73611149441e-01
  +6.20674081432e-01-j2.38298069470e-01
